# vsim -novopt ahb_top -c -do "run -all;exit" -l log/ahb_master_sanity_test.log "+UVM_TESTNAME=ahb_master_sanity_test" "+UVM_VERBOSITY=UVM_DEBUG" 
# Start time: 00:31:05 on Mar 02,2024
# ** Warning: (vsim-8891) All optimizations are turned off because the -novopt switch is in effect. This will cause your simulation to run very slowly. If you are using this switch to preserve visibility for Debug or PLI features please see the User's Manual section on Preserving Object Visibility with vopt.
# 
# //  Questa Sim-64
# //  Version 10.4e win64 Apr  9 2016
# //
# //  Copyright 1991-2016 Mentor Graphics Corporation
# //  All Rights Reserved.
# //
# //  THIS WORK CONTAINS TRADE SECRET AND PROPRIETARY INFORMATION
# //  WHICH IS THE PROPERTY OF MENTOR GRAPHICS CORPORATION OR ITS
# //  LICENSORS AND IS SUBJECT TO LICENSE TERMS.
# //  THIS DOCUMENT CONTAINS TRADE SECRETS AND COMMERCIAL OR FINANCIAL
# //  INFORMATION THAT ARE PRIVILEGED, CONFIDENTIAL, AND EXEMPT FROM
# //  DISCLOSURE UNDER THE FREEDOM OF INFORMATION ACT, 5 U.S.C. SECTION 552.
# //  FURTHERMORE, THIS INFORMATION IS PROHIBITED FROM DISCLOSURE UNDER
# //  THE TRADE SECRETS ACT, 18 U.S.C. SECTION 1905.
# //
# Refreshing D:/1A/MAIN/Back-To-Back_UVC/sim/work.ahb_top
# Refreshing D:/1A/MAIN/Back-To-Back_UVC/sim/work.ahb_pkg
# Loading sv_std.std
# Loading mtiUvm.uvm_pkg
# Loading work.ahb_pkg
# Refreshing D:/1A/MAIN/Back-To-Back_UVC/sim/work.ahb_top_sv_unit
# Loading work.ahb_top_sv_unit
# Loading work.ahb_top
# Refreshing D:/1A/MAIN/Back-To-Back_UVC/sim/work.ahb_inf
# Loading work.ahb_inf
# Refreshing D:/1A/MAIN/Back-To-Back_UVC/sim/work.ahb_dut_wrapper
# Loading work.ahb_dut_wrapper
# Refreshing D:/1A/MAIN/Back-To-Back_UVC/sim/work.ahb_dut
# Loading work.ahb_dut
# Loading mtiUvm.questa_uvm_pkg
# Refreshing D:/1A/MAIN/Back-To-Back_UVC/sim/work.ahb_mas_inf
# Loading work.ahb_mas_inf
# Refreshing D:/1A/MAIN/Back-To-Back_UVC/sim/work.ahb_assertion
# Loading work.ahb_assertion
# Refreshing D:/1A/MAIN/Back-To-Back_UVC/sim/work.ahb_slv_inf
# Loading work.ahb_slv_inf
# ** Warning: (vsim-3015) ../HDL_interconnect/ahb_dut_wrapper.sv(21): [PCDPC] - Port size (4) does not match connection size (1) for port 'hmaster_s0'. The port definition is at: ../HDL_interconnect/ahb_dut.v(60).
#    Time: 0 ns  Iteration: 0  Instance: /ahb_top/DUT/dut File: ../HDL_interconnect/ahb_dut.v
# Loading C:/questasim64_10.4e/uvm-1.1d\win64\uvm_dpi.dll
# run -all
# ----------------------------------------------------------------
# UVM-1.1d
# (C) 2007-2013 Mentor Graphics Corporation
# (C) 2007-2013 Cadence Design Systems, Inc.
# (C) 2006-2013 Synopsys, Inc.
# (C) 2011-2013 Cypress Semiconductor Corp.
# ----------------------------------------------------------------
# 
#   ***********       IMPORTANT RELEASE NOTES         ************
# 
#   You are using a version of the UVM library that has been compiled
#   with `UVM_NO_DEPRECATED undefined.
#   See http://www.eda.org/svdb/view.php?id=3313 for more details.
# 
#   You are using a version of the UVM library that has been compiled
#   with `UVM_OBJECT_MUST_HAVE_CONSTRUCTOR undefined.
#   See http://www.eda.org/svdb/view.php?id=3770 for more details.
# 
#       (Specify +UVM_NO_RELNOTES to turn off this notice)
# 
# UVM_INFO verilog_src/questa_uvm_pkg-1.2/src/questa_uvm_pkg.sv(215) @ 0: reporter [Questa UVM] QUESTA_UVM-1.2.3
# UVM_INFO verilog_src/questa_uvm_pkg-1.2/src/questa_uvm_pkg.sv(217) @ 0: reporter [Questa UVM]  questa_uvm::init(+struct)
# UVM_INFO verilog_src/questa_uvm_pkg-1.2/src/questa_uvm_pkg.sv(192) @ 0: reporter [Questa UVM] Add Phase
# UVM_INFO @ 0: reporter [RNTST] Running test ahb_master_sanity_test...
# UVM_INFO ../test/ahb_master_sanity_test.sv(50) @ 0: uvm_test_top [build_phase] Entered...
# ----------------------------------------------------------------------
# Name                 Type                             Size  Value     
# ----------------------------------------------------------------------
# env_cfg              ahb_env_config                   -     @513      
#   has_scoreboard     integral                         1     'h1       
#   has_coverage       integral                         1     'h1       
#   no_of_uvc          integral                         32    'h2       
#   uvc_cfg            da(object)                       2     -         
#     [0]              ahb_uvc_config                   -     @514      
#       no_of_masters  integral                         32    'h1       
#       no_of_slaves   integral                         32    'h0       
#       master_cfg     da(object)                       1     -         
#         [0]          ahb_mas_agent_cfg                -     @516      
#           is_active  uvm_active_passive_enum          1     UVM_ACTIVE
#           is_enable  uvm_checker_enable_disable_enum  1     ENABLE    
#       slave_cfg      da(object)                       0     -         
#     [1]              ahb_uvc_config                   -     @515      
#       no_of_masters  integral                         32    'h0       
#       no_of_slaves   integral                         32    'h1       
#       master_cfg     da(object)                       0     -         
#       slave_cfg      da(object)                       1     -         
#         [0]          ahb_slv_agent_cfg                -     @517      
#           is_active  uvm_active_passive_enum          1     UVM_ACTIVE
#           is_enable  uvm_checker_enable_disable_enum  1     DISABLE   
# ----------------------------------------------------------------------
# UVM_INFO ../test/ahb_master_sanity_test.sv(64) @ 0: uvm_test_top [build_phase] Exiting...
# UVM_INFO @ 0: reporter [UVMTOP] UVM testbench topology:
# ----------------------------------------------------------------------
# Name                           Type                        Size  Value
# ----------------------------------------------------------------------
# uvm_test_top                   ahb_master_sanity_test      -     @504 
#   env_h                        ahb_env                     -     @518 
#     ahb_cc_h                   ahb_cc                      -     @583 
#       mas_ai_cc                uvm_analysis_imp_mas        -     @591 
#       slv_ai_cc                uvm_analysis_imp_slv        -     @600 
#     ahb_sb_h                   ahb_sb                      -     @557 
#       mas_ai_sb                uvm_analysis_imp_mas        -     @565 
#       slv_ai_sb                uvm_analysis_imp_slv        -     @574 
#     ahb_uvc_h[0]               ahb_uvc                     -     @541 
#       mas_agent_h[0]           uvm_agent                   -     @616 
#         mas_chk_h              ahb_mas_checker             -     @813 
#           mas_ai_ch            uvm_analysis_imp            -     @821 
#         mas_drv_h              uvm_driver #(REQ,RSP)       -     @752 
#           rsp_port             uvm_analysis_port           -     @769 
#           seq_item_port        uvm_seq_item_pull_port      -     @760 
#         mas_mon_h              uvm_monitor                 -     @778 
#           mas_ap_ch            uvm_analysis_port           -     @795 
#           mas_ap_mon           uvm_analysis_port           -     @786 
#           mas_mon_cc           uvm_analysis_port           -     @804 
#         mas_seqr_h             uvm_sequencer               -     @629 
#           rsp_export           uvm_analysis_export         -     @637 
#           seq_item_export      uvm_seq_item_pull_imp       -     @743 
#           arbitration_queue    array                       0     -    
#           lock_queue           array                       0     -    
#           num_last_reqs        integral                    32    'd1  
#           num_last_rsps        integral                    32    'd1  
#     ahb_uvc_h[1]               ahb_uvc                     -     @549 
#       slv_agent_h[0]           uvm_agent                   -     @843 
#         slv_drv_h              uvm_driver #(REQ,RSP)       -     @1041
#           rsp_port             uvm_analysis_port           -     @1058
#           seq_item_port        uvm_seq_item_pull_port      -     @1049
#         slv_mon_h              uvm_monitor                 -     @1067
#           slv_ap_mon           uvm_analysis_port           -     @1075
#           slv_mon_cc           uvm_analysis_port           -     @1093
#           slv_mon_sb           uvm_analysis_port           -     @1084
#         slv_seqr_h             uvm_sequencer               -     @856 
#           item_collected_fifo  uvm_tlm_analysis_fifo #(T)  -     @988 
#             analysis_export    uvm_analysis_imp            -     @1032
#             get_ap             uvm_analysis_port           -     @1023
#             get_peek_export    uvm_get_peek_imp            -     @1005
#             put_ap             uvm_analysis_port           -     @1014
#             put_export         uvm_put_imp                 -     @996 
#           item_export          uvm_analysis_export         -     @979 
#           rsp_export           uvm_analysis_export         -     @864 
#           seq_item_export      uvm_seq_item_pull_imp       -     @970 
#           arbitration_queue    array                       0     -    
#           lock_queue           array                       0     -    
#           num_last_reqs        integral                    32    'd1  
#           num_last_rsps        integral                    32    'd1  
# ----------------------------------------------------------------------
# 
# UVM_INFO verilog_src/questa_uvm_pkg-1.2/src/questa_uvm_pkg.sv(277) @ 0: reporter [Questa UVM] End Of Elaboration
# UVM_INFO verilog_src/uvm-1.1d/src/seq/uvm_sequencer_base.svh(1391) @ 0: uvm_test_top.env_h.ahb_uvc_h[1].slv_agent_h[0].slv_seqr_h [PHASESEQ] Starting default sequence 'uvm_sequence_item' for phase 'run'
# UVM_INFO ../slv_agent/ahb_slave_monitor.sv(104) @ 0: uvm_test_top.env_h.ahb_uvc_h[1].slv_agent_h[0].slv_mon_h [SLAVE MONITOR] THIS IS INSIDE SLAVE MONITOR RESET
# UVM_INFO ../slv_agent/ahb_slave_driver.sv(161) @ 0: uvm_test_top.env_h.ahb_uvc_h[1].slv_agent_h[0].slv_drv_h [SLAVE DRIVER] SLAVE SIDE RESET
# UVM_INFO verilog_src/uvm-1.1d/src/seq/uvm_sequencer_base.svh(1385) @ 0: uvm_test_top.env_h.ahb_uvc_h[0].mas_agent_h[0].mas_seqr_h [PHASESEQ] No default phase sequence for phase 'run'
# UVM_INFO ../mas_agent/ahb_master_monitor.sv(100) @ 0: uvm_test_top.env_h.ahb_uvc_h[0].mas_agent_h[0].mas_mon_h [RESET] THIS IS MASTER MONITOR RESET
# UVM_INFO ../mas_agent/ahb_master_driver.sv(134) @ 0: uvm_test_top.env_h.ahb_uvc_h[0].mas_agent_h[0].mas_drv_h [MASTER DRIVER] THIS IS MASTER SIDE RESET
# UVM_INFO verilog_src/uvm-1.1d/src/seq/uvm_sequencer_base.svh(1385) @ 0: uvm_test_top.env_h.ahb_uvc_h[1].slv_agent_h[0].slv_seqr_h [PHASESEQ] No default phase sequence for phase 'pre_reset'
# UVM_INFO verilog_src/uvm-1.1d/src/seq/uvm_sequencer_base.svh(1385) @ 0: uvm_test_top.env_h.ahb_uvc_h[0].mas_agent_h[0].mas_seqr_h [PHASESEQ] No default phase sequence for phase 'pre_reset'
# UVM_INFO verilog_src/uvm-1.1d/src/base/uvm_phase.svh(1215) @ 0: reporter [PH_READY_TO_END] Phase 'uvm.uvm_sched.pre_reset' (id=172) PHASE READY TO END
# UVM_INFO verilog_src/uvm-1.1d/src/seq/uvm_sequencer_base.svh(1385) @ 0: uvm_test_top.env_h.ahb_uvc_h[1].slv_agent_h[0].slv_seqr_h [PHASESEQ] No default phase sequence for phase 'reset'
# UVM_INFO verilog_src/uvm-1.1d/src/seq/uvm_sequencer_base.svh(1385) @ 0: uvm_test_top.env_h.ahb_uvc_h[0].mas_agent_h[0].mas_seqr_h [PHASESEQ] No default phase sequence for phase 'reset'
# UVM_INFO verilog_src/uvm-1.1d/src/base/uvm_phase.svh(1215) @ 0: reporter [PH_READY_TO_END] Phase 'uvm.uvm_sched.reset' (id=184) PHASE READY TO END
# UVM_INFO verilog_src/uvm-1.1d/src/seq/uvm_sequencer_base.svh(1385) @ 0: uvm_test_top.env_h.ahb_uvc_h[1].slv_agent_h[0].slv_seqr_h [PHASESEQ] No default phase sequence for phase 'post_reset'
# UVM_INFO verilog_src/uvm-1.1d/src/seq/uvm_sequencer_base.svh(1385) @ 0: uvm_test_top.env_h.ahb_uvc_h[0].mas_agent_h[0].mas_seqr_h [PHASESEQ] No default phase sequence for phase 'post_reset'
# UVM_INFO verilog_src/uvm-1.1d/src/base/uvm_phase.svh(1215) @ 0: reporter [PH_READY_TO_END] Phase 'uvm.uvm_sched.post_reset' (id=196) PHASE READY TO END
# UVM_INFO verilog_src/uvm-1.1d/src/seq/uvm_sequencer_base.svh(1385) @ 0: uvm_test_top.env_h.ahb_uvc_h[1].slv_agent_h[0].slv_seqr_h [PHASESEQ] No default phase sequence for phase 'pre_configure'
# UVM_INFO verilog_src/uvm-1.1d/src/seq/uvm_sequencer_base.svh(1385) @ 0: uvm_test_top.env_h.ahb_uvc_h[0].mas_agent_h[0].mas_seqr_h [PHASESEQ] No default phase sequence for phase 'pre_configure'
# UVM_INFO verilog_src/uvm-1.1d/src/base/uvm_phase.svh(1215) @ 0: reporter [PH_READY_TO_END] Phase 'uvm.uvm_sched.pre_configure' (id=208) PHASE READY TO END
# UVM_INFO verilog_src/uvm-1.1d/src/seq/uvm_sequencer_base.svh(1385) @ 0: uvm_test_top.env_h.ahb_uvc_h[1].slv_agent_h[0].slv_seqr_h [PHASESEQ] No default phase sequence for phase 'configure'
# UVM_INFO verilog_src/uvm-1.1d/src/seq/uvm_sequencer_base.svh(1385) @ 0: uvm_test_top.env_h.ahb_uvc_h[0].mas_agent_h[0].mas_seqr_h [PHASESEQ] No default phase sequence for phase 'configure'
# UVM_INFO verilog_src/uvm-1.1d/src/base/uvm_phase.svh(1215) @ 0: reporter [PH_READY_TO_END] Phase 'uvm.uvm_sched.configure' (id=220) PHASE READY TO END
# UVM_INFO verilog_src/uvm-1.1d/src/seq/uvm_sequencer_base.svh(1385) @ 0: uvm_test_top.env_h.ahb_uvc_h[1].slv_agent_h[0].slv_seqr_h [PHASESEQ] No default phase sequence for phase 'post_configure'
# UVM_INFO verilog_src/uvm-1.1d/src/seq/uvm_sequencer_base.svh(1385) @ 0: uvm_test_top.env_h.ahb_uvc_h[0].mas_agent_h[0].mas_seqr_h [PHASESEQ] No default phase sequence for phase 'post_configure'
# UVM_INFO verilog_src/uvm-1.1d/src/base/uvm_phase.svh(1215) @ 0: reporter [PH_READY_TO_END] Phase 'uvm.uvm_sched.post_configure' (id=232) PHASE READY TO END
# UVM_INFO verilog_src/uvm-1.1d/src/seq/uvm_sequencer_base.svh(1385) @ 0: uvm_test_top.env_h.ahb_uvc_h[1].slv_agent_h[0].slv_seqr_h [PHASESEQ] No default phase sequence for phase 'pre_main'
# UVM_INFO verilog_src/uvm-1.1d/src/seq/uvm_sequencer_base.svh(1385) @ 0: uvm_test_top.env_h.ahb_uvc_h[0].mas_agent_h[0].mas_seqr_h [PHASESEQ] No default phase sequence for phase 'pre_main'
# UVM_INFO verilog_src/uvm-1.1d/src/base/uvm_phase.svh(1215) @ 0: reporter [PH_READY_TO_END] Phase 'uvm.uvm_sched.pre_main' (id=244) PHASE READY TO END
# UVM_INFO verilog_src/uvm-1.1d/src/seq/uvm_sequencer_base.svh(1385) @ 0: uvm_test_top.env_h.ahb_uvc_h[1].slv_agent_h[0].slv_seqr_h [PHASESEQ] No default phase sequence for phase 'main'
# UVM_INFO verilog_src/uvm-1.1d/src/seq/uvm_sequencer_base.svh(1391) @ 0: uvm_test_top.env_h.ahb_uvc_h[0].mas_agent_h[0].mas_seqr_h [PHASESEQ] Starting default sequence 'uvm_sequence_item' for phase 'main'
# UVM_INFO ../seq/ahb_master_sanity_sequence.sv(46) @ 0: uvm_test_top.env_h.ahb_uvc_h[0].mas_agent_h[0].mas_seqr_h@@<unknown> [body] Entered ...
# UVM_INFO ../seq/ahb_master_sanity_sequence.sv(49) @ 0: uvm_test_top.env_h.ahb_uvc_h[0].mas_agent_h[0].mas_seqr_h@@<unknown> [BODY] GET FAILED
# UVM_INFO ../seq/ahb_master_sanity_sequence.sv(51) @ 0: uvm_test_top.env_h.ahb_uvc_h[0].mas_agent_h[0].mas_seqr_h@@<unknown> [body] sequence_length is 20
# UVM_INFO ../mas_agent/ahb_master_driver.sv(534) @ 225: uvm_test_top.env_h.ahb_uvc_h[0].mas_agent_h[0].mas_drv_h [MASTER DRIVER] PREVIOUS TRANS IS NOT BUSY
# UVM_INFO ../slv_agent/ahb_slave_driver.sv(62) @ 275: uvm_test_top.env_h.ahb_uvc_h[1].slv_agent_h[0].slv_drv_h [SLAVE_DRIVER] THIS IS BEFOR GET NEXT ITEM
# UVM_INFO ../mas_agent/ahb_master_driver.sv(107) @ 275: uvm_test_top.env_h.ahb_uvc_h[0].mas_agent_h[0].mas_drv_h [MASTER DRIVER] THIS IS INSIDE MASTER DRIVER
# ------------------------------------------------------------------
# NAME           TYPE        SUB-TYPE     SIZE          VALUE
# ------------------------------------------------------------------
# HWRITE        integral      binary        1          1
# HADDR         integral      hex          32         00000000
# HWDATA        integral      hex          32         '{780028426}
# hburst_type   hburst_enum   enum          3          SINGLE
# hsize_type    hsize_enum    enum          3          WORD
# htrans_type   htrans_enum   enum          3          '{NONSEQ}
# HRDATA        integral      hex          32         00000000
# hresp_type    htrans_enum   enum          2          OKAY
# hready        hready        bit           1          0
# -------------------------------------------------------------------
# UVM_INFO ../mas_agent/ahb_master_driver.sv(190) @ 275: uvm_test_top.env_h.ahb_uvc_h[0].mas_agent_h[0].mas_drv_h [MASTER DRIVER] THIS IS INSIDE ADDR PHASE
# UVM_INFO ../mas_agent/ahb_master_driver.sv(228) @ 275: uvm_test_top.env_h.ahb_uvc_h[0].mas_agent_h[0].mas_drv_h [MASTER DRIVER] THIS IS INSIDE FIRST NONSEQ
# UVM_INFO ../mas_agent/ahb_master_driver.sv(435) @ 275: uvm_test_top.env_h.ahb_uvc_h[0].mas_agent_h[0].mas_drv_h [MASTER DRIVER] THIS IS INSIDE DATA PHASE
# UVM_INFO ../mas_agent/ahb_master_driver.sv(441) @ 275: uvm_test_top.env_h.ahb_uvc_h[0].mas_agent_h[0].mas_drv_h [MASTER DRIVER] THIS IS INSIDE WRITE SCENARIO DATA PHASE
# UVM_INFO ../mas_agent/ahb_master_driver.sv(444) @ 325: uvm_test_top.env_h.ahb_uvc_h[0].mas_agent_h[0].mas_drv_h [MASTER DRIVER] THIS IS LOOP_COUNT -- 0
# UVM_INFO ../mas_agent/ahb_master_driver.sv(448) @ 325: uvm_test_top.env_h.ahb_uvc_h[0].mas_agent_h[0].mas_drv_h [MASTER DRIVER] THIS IS INSIDE WRITE SCENARIO OKAY RESP DATA PHASE
# UVM_INFO ../mas_agent/ahb_master_driver.sv(450) @ 325: uvm_test_top.env_h.ahb_uvc_h[0].mas_agent_h[0].mas_drv_h [MASTER DRIVER] THIS IS TRANS -- 780028426
# UVM_INFO ../mas_agent/ahb_master_driver.sv(462) @ 325: uvm_test_top.env_h.ahb_uvc_h[0].mas_agent_h[0].mas_drv_h [MASTER DRIVER] THIS IS INSIDE DATA SENDING TO THE INTERFACE
# UVM_INFO ../mas_agent/ahb_master_driver.sv(497) @ 325: uvm_test_top.env_h.ahb_uvc_h[0].mas_agent_h[0].mas_drv_h [uvm_driver #(REQ,RSP)] DATA PHASE!!size of queue=========='{}
# UVM_INFO ../mas_agent/ahb_master_driver.sv(504) @ 325: uvm_test_top.env_h.ahb_uvc_h[0].mas_agent_h[0].mas_drv_h [uvm_driver #(REQ,RSP)] DATA PHASE!!going to be end!!
# UVM_INFO ../mas_agent/ahb_master_driver.sv(421) @ 325: uvm_test_top.env_h.ahb_uvc_h[0].mas_agent_h[0].mas_drv_h [uvm_driver #(REQ,RSP)] ADDR PHASE!!going to be end!!
# UVM_INFO ../mas_agent/ahb_master_monitor.sv(114) @ 325: uvm_test_top.env_h.ahb_uvc_h[0].mas_agent_h[0].mas_mon_h [MASTER MONITOR] INSIDE ADDR PHASE OF MAS MON
# UVM_INFO ../mas_agent/ahb_master_monitor.sv(122) @ 325: uvm_test_top.env_h.ahb_uvc_h[0].mas_agent_h[0].mas_mon_h [MASTER MONITOR] THIS IS MONITOR ADDR PHASE SENDING TRANSECTION
# ------------------------------------------------------------------
# NAME           TYPE        SUB-TYPE     SIZE          VALUE
# ------------------------------------------------------------------
# HWRITE        integral      binary        1          1
# HADDR         integral      hex          32         00000000
# HWDATA        integral      hex          32         '{}
# hburst_type   hburst_enum   enum          3          SINGLE
# hsize_type    hsize_enum    enum          3          WORD
# htrans_type   htrans_enum   enum          3          '{NONSEQ}
# HRDATA        integral      hex          32         00000000
# hresp_type    htrans_enum   enum          2          OKAY
# hready        hready        bit           1          1
# -------------------------------------------------------------------
# UVM_INFO ../mas_agent/ahb_master_checker.sv(126) @ 325: uvm_test_top.env_h.ahb_uvc_h[0].mas_agent_h[0].mas_chk_h [MASTER CHECKER] THIS IS CHECKER RECEIVED TRANSECTION
# ------------------------------------------------------------------
# NAME           TYPE        SUB-TYPE     SIZE          VALUE
# ------------------------------------------------------------------
# HWRITE        integral      binary        1          1
# HADDR         integral      hex          32         00000000
# HWDATA        integral      hex          32         '{}
# hburst_type   hburst_enum   enum          3          SINGLE
# hsize_type    hsize_enum    enum          3          WORD
# htrans_type   htrans_enum   enum          3          '{NONSEQ}
# HRDATA        integral      hex          32         00000000
# hresp_type    htrans_enum   enum          2          OKAY
# hready        hready        bit           1          1
# -------------------------------------------------------------------
# UVM_INFO ../mas_agent/ahb_master_checker.sv(145) @ 325: uvm_test_top.env_h.ahb_uvc_h[0].mas_agent_h[0].mas_chk_h [ahb_mas_checker] size of check trans q = 1 | res = 1
# UVM_INFO ../slv_agent/ahb_slave_monitor.sv(121) @ 325: uvm_test_top.env_h.ahb_uvc_h[1].slv_agent_h[0].slv_mon_h [SLAVE MONITOR] THIS IS INSIDE ADDR PHASE OF SLAVE MONITOR
# UVM_INFO ../slv_agent/ahb_slave_monitor.sv(129) @ 325: uvm_test_top.env_h.ahb_uvc_h[1].slv_agent_h[0].slv_mon_h [SLAVE MONITOR] THIS IS SLAVE SENDING TRANSECTION TO SEQUENCE
# ------------------------------------------------------------------
# NAME           TYPE        SUB-TYPE     SIZE          VALUE
# ------------------------------------------------------------------
# HWRITE       integral      binary        1          1
# HADDR        integral      hex          32         00000000
# HWDATA       integral      hex          32         0
# hburst_type  hburst_enum   enum          3          SINGLE
# hsize_type   hsize_enum    enum          3          WORD
# htrans_type  htrans_enum   enum          1          NONSEQ
# HRDATA       integral      hex          32         00000000
# hresp_type   hresp_enum    enum          1          OKAY
# HREADYOUT    integral      binary        1          0
# -------------------------------------------------------------------
# UVM_INFO ../seq/ahb_slave_mem_response_sequence.sv(53) @ 325: uvm_test_top.env_h.ahb_uvc_h[1].slv_agent_h[0].slv_seqr_h@@<unknown> [SLAVE SEQUENCE] This Is Slave Sequence Collected Transaction
# ------------------------------------------------------------------
# NAME           TYPE        SUB-TYPE     SIZE          VALUE
# ------------------------------------------------------------------
# HWRITE       integral      binary        1          1
# HADDR        integral      hex          32         00000000
# HWDATA       integral      hex          32         0
# hburst_type  hburst_enum   enum          3          SINGLE
# hsize_type   hsize_enum    enum          3          WORD
# htrans_type  htrans_enum   enum          1          NONSEQ
# HRDATA       integral      hex          32         00000000
# hresp_type   hresp_enum    enum          1          OKAY
# HREADYOUT    integral      binary        1          0
# -------------------------------------------------------------------
# UVM_INFO ../slv_agent/ahb_slave_driver.sv(89) @ 325: uvm_test_top.env_h.ahb_uvc_h[1].slv_agent_h[0].slv_drv_h [SLAVE DRIVER] THIS IS INSIDE SLAVE DRIVER
# ------------------------------------------------------------------
# NAME           TYPE        SUB-TYPE     SIZE          VALUE
# ------------------------------------------------------------------
# HWRITE       integral      binary        1          1
# HADDR        integral      hex          32         00000000
# HWDATA       integral      hex          32         0
# hburst_type  hburst_enum   enum          3          SINGLE
# hsize_type   hsize_enum    enum          3          WORD
# htrans_type  htrans_enum   enum          1          NONSEQ
# HRDATA       integral      hex          32         00000000
# hresp_type   hresp_enum    enum          1          OKAY
# HREADYOUT    integral      binary        1          0
# -------------------------------------------------------------------
# UVM_INFO ../slv_agent/ahb_slave_driver.sv(121) @ 325: uvm_test_top.env_h.ahb_uvc_h[1].slv_agent_h[0].slv_drv_h [SLAVE DRIVER] THIS IS INSIDE READ OKAY RESP
# UVM_INFO ../mas_agent/ahb_master_driver.sv(107) @ 325: uvm_test_top.env_h.ahb_uvc_h[0].mas_agent_h[0].mas_drv_h [MASTER DRIVER] THIS IS INSIDE MASTER DRIVER
# ------------------------------------------------------------------
# NAME           TYPE        SUB-TYPE     SIZE          VALUE
# ------------------------------------------------------------------
# HWRITE        integral      binary        1          0
# HADDR         integral      hex          32         00000000
# HWDATA        integral      hex          32         '{3266846316}
# hburst_type   hburst_enum   enum          3          SINGLE
# hsize_type    hsize_enum    enum          3          HALFWORD
# htrans_type   htrans_enum   enum          3          '{NONSEQ}
# HRDATA        integral      hex          32         00000000
# hresp_type    htrans_enum   enum          2          OKAY
# hready        hready        bit           1          0
# -------------------------------------------------------------------
# UVM_INFO ../mas_agent/ahb_master_driver.sv(190) @ 325: uvm_test_top.env_h.ahb_uvc_h[0].mas_agent_h[0].mas_drv_h [MASTER DRIVER] THIS IS INSIDE ADDR PHASE
# UVM_INFO ../mas_agent/ahb_master_driver.sv(228) @ 325: uvm_test_top.env_h.ahb_uvc_h[0].mas_agent_h[0].mas_drv_h [MASTER DRIVER] THIS IS INSIDE FIRST NONSEQ
# UVM_INFO ../mas_agent/ahb_master_driver.sv(435) @ 325: uvm_test_top.env_h.ahb_uvc_h[0].mas_agent_h[0].mas_drv_h [MASTER DRIVER] THIS IS INSIDE DATA PHASE
# UVM_INFO ../mas_agent/ahb_master_driver.sv(480) @ 325: uvm_test_top.env_h.ahb_uvc_h[0].mas_agent_h[0].mas_drv_h [MASTER DRIVER] THIS IS INSIDE READ SCENARIO DATA PHASE
# UVM_INFO ../mas_agent/ahb_master_driver.sv(484) @ 375: uvm_test_top.env_h.ahb_uvc_h[0].mas_agent_h[0].mas_drv_h [MASTER DRIVER] THIS IS LOOP_COUNT -- 0
# UVM_INFO ../mas_agent/ahb_master_monitor.sv(138) @ 375: uvm_test_top.env_h.ahb_uvc_h[0].mas_agent_h[0].mas_mon_h [MASTER MONITOR] INSIDE DATA PHASE OF MAS MON
# UVM_INFO ../mas_agent/ahb_master_monitor.sv(144) @ 375: uvm_test_top.env_h.ahb_uvc_h[0].mas_agent_h[0].mas_mon_h [MASTER MONITOR] THIS IS MONITOR DATA_PHASE SENDING TRANSECTION
# ------------------------------------------------------------------
# NAME           TYPE        SUB-TYPE     SIZE          VALUE
# ------------------------------------------------------------------
# HWRITE        integral      binary        1          1
# HADDR         integral      hex          32         00000000
# HWDATA        integral      hex          32         '{780028426}
# hburst_type   hburst_enum   enum          3          SINGLE
# hsize_type    hsize_enum    enum          3          WORD
# htrans_type   htrans_enum   enum          3          '{NONSEQ}
# HRDATA        integral      hex          32         00000000
# hresp_type    htrans_enum   enum          2          OKAY
# hready        hready        bit           1          1
# -------------------------------------------------------------------
# UVM_INFO ../env/ahb_scoreboard.sv(75) @ 375: uvm_test_top.env_h.ahb_sb_h [SCOREBOARD] THIS IS SCOREBOARD RECEIVED TRANSECTION FROM MASTER
# UVM_INFO ../env/ahb_scoreboard.sv(80) @ 375: uvm_test_top.env_h.ahb_sb_h [SCOREBOARD] COMES IN SCOREBOARD MAS-WRITE TASK
# UVM_INFO ../env/ahb_scoreboard.sv(89) @ 375: uvm_test_top.env_h.ahb_sb_h [SCOREBOARD] ADDR - 0  | DATA - 10
# UVM_INFO ../env/ahb_scoreboard.sv(89) @ 375: uvm_test_top.env_h.ahb_sb_h [SCOREBOARD] ADDR - 1  | DATA - 74
# UVM_INFO ../env/ahb_scoreboard.sv(89) @ 375: uvm_test_top.env_h.ahb_sb_h [SCOREBOARD] ADDR - 2  | DATA - 126
# UVM_INFO ../env/ahb_scoreboard.sv(89) @ 375: uvm_test_top.env_h.ahb_sb_h [SCOREBOARD] ADDR - 3  | DATA - 46
# UVM_INFO ../mas_agent/ahb_master_monitor.sv(114) @ 375: uvm_test_top.env_h.ahb_uvc_h[0].mas_agent_h[0].mas_mon_h [MASTER MONITOR] INSIDE ADDR PHASE OF MAS MON
# UVM_INFO ../mas_agent/ahb_master_monitor.sv(122) @ 375: uvm_test_top.env_h.ahb_uvc_h[0].mas_agent_h[0].mas_mon_h [MASTER MONITOR] THIS IS MONITOR ADDR PHASE SENDING TRANSECTION
# ------------------------------------------------------------------
# NAME           TYPE        SUB-TYPE     SIZE          VALUE
# ------------------------------------------------------------------
# HWRITE        integral      binary        1          0
# HADDR         integral      hex          32         00000000
# HWDATA        integral      hex          32         '{780028426}
# hburst_type   hburst_enum   enum          3          SINGLE
# hsize_type    hsize_enum    enum          3          HALFWORD
# htrans_type   htrans_enum   enum          3          '{NONSEQ}
# HRDATA        integral      hex          32         00000000
# hresp_type    htrans_enum   enum          2          OKAY
# hready        hready        bit           1          0
# -------------------------------------------------------------------
# UVM_INFO ../mas_agent/ahb_master_checker.sv(126) @ 375: uvm_test_top.env_h.ahb_uvc_h[0].mas_agent_h[0].mas_chk_h [MASTER CHECKER] THIS IS CHECKER RECEIVED TRANSECTION
# ------------------------------------------------------------------
# NAME           TYPE        SUB-TYPE     SIZE          VALUE
# ------------------------------------------------------------------
# HWRITE        integral      binary        1          0
# HADDR         integral      hex          32         00000000
# HWDATA        integral      hex          32         '{780028426}
# hburst_type   hburst_enum   enum          3          SINGLE
# hsize_type    hsize_enum    enum          3          HALFWORD
# htrans_type   htrans_enum   enum          3          '{NONSEQ}
# HRDATA        integral      hex          32         00000000
# hresp_type    htrans_enum   enum          2          OKAY
# hready        hready        bit           1          0
# -------------------------------------------------------------------
# UVM_INFO ../mas_agent/ahb_master_checker.sv(145) @ 375: uvm_test_top.env_h.ahb_uvc_h[0].mas_agent_h[0].mas_chk_h [ahb_mas_checker] size of check trans q = 1 | res = 0
# UVM_INFO ../mas_agent/ahb_master_driver.sv(497) @ 425: uvm_test_top.env_h.ahb_uvc_h[0].mas_agent_h[0].mas_drv_h [uvm_driver #(REQ,RSP)] DATA PHASE!!size of queue=========='{}
# UVM_INFO ../mas_agent/ahb_master_driver.sv(504) @ 425: uvm_test_top.env_h.ahb_uvc_h[0].mas_agent_h[0].mas_drv_h [uvm_driver #(REQ,RSP)] DATA PHASE!!going to be end!!
# UVM_INFO ../mas_agent/ahb_master_driver.sv(421) @ 425: uvm_test_top.env_h.ahb_uvc_h[0].mas_agent_h[0].mas_drv_h [uvm_driver #(REQ,RSP)] ADDR PHASE!!going to be end!!
# UVM_INFO ../mas_agent/ahb_master_monitor.sv(138) @ 425: uvm_test_top.env_h.ahb_uvc_h[0].mas_agent_h[0].mas_mon_h [MASTER MONITOR] INSIDE DATA PHASE OF MAS MON
# UVM_INFO ../mas_agent/ahb_master_monitor.sv(144) @ 425: uvm_test_top.env_h.ahb_uvc_h[0].mas_agent_h[0].mas_mon_h [MASTER MONITOR] THIS IS MONITOR DATA_PHASE SENDING TRANSECTION
# ------------------------------------------------------------------
# NAME           TYPE        SUB-TYPE     SIZE          VALUE
# ------------------------------------------------------------------
# HWRITE        integral      binary        1          0
# HADDR         integral      hex          32         00000000
# HWDATA        integral      hex          32         '{780028426}
# hburst_type   hburst_enum   enum          3          SINGLE
# hsize_type    hsize_enum    enum          3          HALFWORD
# htrans_type   htrans_enum   enum          3          '{NONSEQ}
# HRDATA        integral      hex          32         00000000
# hresp_type    htrans_enum   enum          2          OKAY
# hready        hready        bit           1          0
# -------------------------------------------------------------------
# UVM_INFO ../mas_agent/ahb_master_monitor.sv(114) @ 425: uvm_test_top.env_h.ahb_uvc_h[0].mas_agent_h[0].mas_mon_h [MASTER MONITOR] INSIDE ADDR PHASE OF MAS MON
# UVM_INFO ../mas_agent/ahb_master_monitor.sv(122) @ 425: uvm_test_top.env_h.ahb_uvc_h[0].mas_agent_h[0].mas_mon_h [MASTER MONITOR] THIS IS MONITOR ADDR PHASE SENDING TRANSECTION
# ------------------------------------------------------------------
# NAME           TYPE        SUB-TYPE     SIZE          VALUE
# ------------------------------------------------------------------
# HWRITE        integral      binary        1          0
# HADDR         integral      hex          32         00000000
# HWDATA        integral      hex          32         '{780028426}
# hburst_type   hburst_enum   enum          3          SINGLE
# hsize_type    hsize_enum    enum          3          HALFWORD
# htrans_type   htrans_enum   enum          3          '{NONSEQ}
# HRDATA        integral      hex          32         00000000
# hresp_type    htrans_enum   enum          2          OKAY
# hready        hready        bit           1          1
# -------------------------------------------------------------------
# UVM_INFO ../mas_agent/ahb_master_checker.sv(126) @ 425: uvm_test_top.env_h.ahb_uvc_h[0].mas_agent_h[0].mas_chk_h [MASTER CHECKER] THIS IS CHECKER RECEIVED TRANSECTION
# ------------------------------------------------------------------
# NAME           TYPE        SUB-TYPE     SIZE          VALUE
# ------------------------------------------------------------------
# HWRITE        integral      binary        1          0
# HADDR         integral      hex          32         00000000
# HWDATA        integral      hex          32         '{780028426}
# hburst_type   hburst_enum   enum          3          SINGLE
# hsize_type    hsize_enum    enum          3          HALFWORD
# htrans_type   htrans_enum   enum          3          '{NONSEQ}
# HRDATA        integral      hex          32         00000000
# hresp_type    htrans_enum   enum          2          OKAY
# hready        hready        bit           1          1
# -------------------------------------------------------------------
# UVM_INFO ../mas_agent/ahb_master_checker.sv(145) @ 425: uvm_test_top.env_h.ahb_uvc_h[0].mas_agent_h[0].mas_chk_h [ahb_mas_checker] size of check trans q = 2 | res = 1
# UVM_INFO ../slv_agent/ahb_slave_driver.sv(62) @ 425: uvm_test_top.env_h.ahb_uvc_h[1].slv_agent_h[0].slv_drv_h [SLAVE_DRIVER] THIS IS BEFOR GET NEXT ITEM
# UVM_INFO ../slv_agent/ahb_slave_monitor.sv(161) @ 425: uvm_test_top.env_h.ahb_uvc_h[1].slv_agent_h[0].slv_mon_h [SLAVE MONITOR] THIS IS INSIDE DATA PHASE OF SLAVE MONITOR
# UVM_INFO ../slv_agent/ahb_slave_monitor.sv(167) @ 425: uvm_test_top.env_h.ahb_uvc_h[1].slv_agent_h[0].slv_mon_h [SLAVE MONITOR] THIS IS SLAVE SENDING TRANSECTION TO SCOREBOARD AND SEQUENCE
# ------------------------------------------------------------------
# NAME           TYPE        SUB-TYPE     SIZE          VALUE
# ------------------------------------------------------------------
# HWRITE       integral      binary        1          1
# HADDR        integral      hex          32         00000000
# HWDATA       integral      hex          32         780028426
# hburst_type  hburst_enum   enum          3          SINGLE
# hsize_type   hsize_enum    enum          3          WORD
# htrans_type  htrans_enum   enum          1          NONSEQ
# HRDATA       integral      hex          32         00000000
# hresp_type   hresp_enum    enum          1          OKAY
# HREADYOUT    integral      binary        1          0
# -------------------------------------------------------------------
# UVM_INFO ../env/ahb_scoreboard.sv(105) @ 425: uvm_test_top.env_h.ahb_sb_h [SCOREBOARD] THIS IS SCOREBOARD RECEIVED TRANSECTION FROM SLAVE
# UVM_INFO ../slv_agent/ahb_slave_monitor.sv(121) @ 425: uvm_test_top.env_h.ahb_uvc_h[1].slv_agent_h[0].slv_mon_h [SLAVE MONITOR] THIS IS INSIDE ADDR PHASE OF SLAVE MONITOR
# UVM_INFO ../slv_agent/ahb_slave_monitor.sv(129) @ 425: uvm_test_top.env_h.ahb_uvc_h[1].slv_agent_h[0].slv_mon_h [SLAVE MONITOR] THIS IS SLAVE SENDING TRANSECTION TO SEQUENCE
# ------------------------------------------------------------------
# NAME           TYPE        SUB-TYPE     SIZE          VALUE
# ------------------------------------------------------------------
# HWRITE       integral      binary        1          0
# HADDR        integral      hex          32         00000000
# HWDATA       integral      hex          32         780028426
# hburst_type  hburst_enum   enum          3          SINGLE
# hsize_type   hsize_enum    enum          3          HALFWORD
# htrans_type  htrans_enum   enum          1          NONSEQ
# HRDATA       integral      hex          32         00000000
# hresp_type   hresp_enum    enum          1          OKAY
# HREADYOUT    integral      binary        1          0
# -------------------------------------------------------------------
# UVM_INFO ../seq/ahb_slave_mem_response_sequence.sv(53) @ 425: uvm_test_top.env_h.ahb_uvc_h[1].slv_agent_h[0].slv_seqr_h@@<unknown> [SLAVE SEQUENCE] This Is Slave Sequence Collected Transaction
# ------------------------------------------------------------------
# NAME           TYPE        SUB-TYPE     SIZE          VALUE
# ------------------------------------------------------------------
# HWRITE       integral      binary        1          0
# HADDR        integral      hex          32         00000000
# HWDATA       integral      hex          32         780028426
# hburst_type  hburst_enum   enum          3          SINGLE
# hsize_type   hsize_enum    enum          3          HALFWORD
# htrans_type  htrans_enum   enum          1          NONSEQ
# HRDATA       integral      hex          32         00000000
# hresp_type   hresp_enum    enum          1          OKAY
# HREADYOUT    integral      binary        1          0
# -------------------------------------------------------------------
# UVM_INFO ../seq/ahb_base_slave_sequence.sv(118) @ 425: uvm_test_top.env_h.ahb_uvc_h[1].slv_agent_h[0].slv_seqr_h@@<unknown> [SLAVE SEQUENCE] This Is Inside Write Transfer
# UVM_INFO ../seq/ahb_base_slave_sequence.sv(129) @ 425: uvm_test_top.env_h.ahb_uvc_h[1].slv_agent_h[0].slv_seqr_h@@<unknown> [SLAVE SEQUENCE] This Is Slave Sending Transfer To Sequencer
# ------------------------------------------------------------------
# NAME           TYPE        SUB-TYPE     SIZE          VALUE
# ------------------------------------------------------------------
# HWRITE       integral      binary        1          0
# HADDR        integral      hex          32         00000000
# HWDATA       integral      hex          32         780028426
# hburst_type  hburst_enum   enum          3          SINGLE
# hsize_type   hsize_enum    enum          3          HALFWORD
# htrans_type  htrans_enum   enum          1          NONSEQ
# HRDATA       integral      hex          32         00000000
# hresp_type   hresp_enum    enum          1          OKAY
# HREADYOUT    integral      binary        1          0
# -------------------------------------------------------------------
# UVM_INFO ../seq/ahb_base_slave_sequence.sv(71) @ 425: uvm_test_top.env_h.ahb_uvc_h[1].slv_agent_h[0].slv_seqr_h@@<unknown> [SLAVE SEQUENCE] This Is Read Transfer
# UVM_INFO ../seq/ahb_base_slave_sequence.sv(83) @ 425: uvm_test_top.env_h.ahb_uvc_h[1].slv_agent_h[0].slv_seqr_h@@<unknown> [SLAVE SEQUENCE] This Slave Sending Transaction To The Sequencer
# ------------------------------------------------------------------
# NAME           TYPE        SUB-TYPE     SIZE          VALUE
# ------------------------------------------------------------------
# HWRITE       integral      binary        1          0
# HADDR        integral      hex          32         00000000
# HWDATA       integral      hex          32         780028426
# hburst_type  hburst_enum   enum          3          SINGLE
# hsize_type   hsize_enum    enum          3          HALFWORD
# htrans_type  htrans_enum   enum          1          NONSEQ
# HRDATA       integral      hex          32         00004a0a
# hresp_type   hresp_enum    enum          1          OKAY
# HREADYOUT    integral      binary        1          0
# -------------------------------------------------------------------
# UVM_INFO ../slv_agent/ahb_slave_driver.sv(89) @ 425: uvm_test_top.env_h.ahb_uvc_h[1].slv_agent_h[0].slv_drv_h [SLAVE DRIVER] THIS IS INSIDE SLAVE DRIVER
# ------------------------------------------------------------------
# NAME           TYPE        SUB-TYPE     SIZE          VALUE
# ------------------------------------------------------------------
# HWRITE       integral      binary        1          0
# HADDR        integral      hex          32         00000000
# HWDATA       integral      hex          32         780028426
# hburst_type  hburst_enum   enum          3          SINGLE
# hsize_type   hsize_enum    enum          3          HALFWORD
# htrans_type  htrans_enum   enum          1          NONSEQ
# HRDATA       integral      hex          32         00004a0a
# hresp_type   hresp_enum    enum          1          OKAY
# HREADYOUT    integral      binary        1          1
# -------------------------------------------------------------------
# UVM_INFO ../slv_agent/ahb_slave_driver.sv(121) @ 425: uvm_test_top.env_h.ahb_uvc_h[1].slv_agent_h[0].slv_drv_h [SLAVE DRIVER] THIS IS INSIDE READ OKAY RESP
# UVM_INFO ../mas_agent/ahb_master_driver.sv(107) @ 425: uvm_test_top.env_h.ahb_uvc_h[0].mas_agent_h[0].mas_drv_h [MASTER DRIVER] THIS IS INSIDE MASTER DRIVER
# ------------------------------------------------------------------
# NAME           TYPE        SUB-TYPE     SIZE          VALUE
# ------------------------------------------------------------------
# HWRITE        integral      binary        1          1
# HADDR         integral      hex          32         00000000
# HWDATA        integral      hex          32         '{4093061315}
# hburst_type   hburst_enum   enum          3          SINGLE
# hsize_type    hsize_enum    enum          3          WORD
# htrans_type   htrans_enum   enum          3          '{NONSEQ}
# HRDATA        integral      hex          32         00000000
# hresp_type    htrans_enum   enum          2          OKAY
# hready        hready        bit           1          0
# -------------------------------------------------------------------
# UVM_INFO ../mas_agent/ahb_master_driver.sv(190) @ 425: uvm_test_top.env_h.ahb_uvc_h[0].mas_agent_h[0].mas_drv_h [MASTER DRIVER] THIS IS INSIDE ADDR PHASE
# UVM_INFO ../mas_agent/ahb_master_driver.sv(228) @ 425: uvm_test_top.env_h.ahb_uvc_h[0].mas_agent_h[0].mas_drv_h [MASTER DRIVER] THIS IS INSIDE FIRST NONSEQ
# UVM_INFO ../mas_agent/ahb_master_driver.sv(435) @ 425: uvm_test_top.env_h.ahb_uvc_h[0].mas_agent_h[0].mas_drv_h [MASTER DRIVER] THIS IS INSIDE DATA PHASE
# UVM_INFO ../mas_agent/ahb_master_driver.sv(441) @ 425: uvm_test_top.env_h.ahb_uvc_h[0].mas_agent_h[0].mas_drv_h [MASTER DRIVER] THIS IS INSIDE WRITE SCENARIO DATA PHASE
# UVM_INFO ../mas_agent/ahb_master_driver.sv(444) @ 475: uvm_test_top.env_h.ahb_uvc_h[0].mas_agent_h[0].mas_drv_h [MASTER DRIVER] THIS IS LOOP_COUNT -- 0
# UVM_INFO ../mas_agent/ahb_master_driver.sv(448) @ 475: uvm_test_top.env_h.ahb_uvc_h[0].mas_agent_h[0].mas_drv_h [MASTER DRIVER] THIS IS INSIDE WRITE SCENARIO OKAY RESP DATA PHASE
# UVM_INFO ../mas_agent/ahb_master_driver.sv(450) @ 475: uvm_test_top.env_h.ahb_uvc_h[0].mas_agent_h[0].mas_drv_h [MASTER DRIVER] THIS IS TRANS -- 4093061315
# UVM_INFO ../mas_agent/ahb_master_driver.sv(462) @ 475: uvm_test_top.env_h.ahb_uvc_h[0].mas_agent_h[0].mas_drv_h [MASTER DRIVER] THIS IS INSIDE DATA SENDING TO THE INTERFACE
# UVM_INFO ../mas_agent/ahb_master_driver.sv(497) @ 475: uvm_test_top.env_h.ahb_uvc_h[0].mas_agent_h[0].mas_drv_h [uvm_driver #(REQ,RSP)] DATA PHASE!!size of queue=========='{}
# UVM_INFO ../mas_agent/ahb_master_driver.sv(504) @ 475: uvm_test_top.env_h.ahb_uvc_h[0].mas_agent_h[0].mas_drv_h [uvm_driver #(REQ,RSP)] DATA PHASE!!going to be end!!
# UVM_INFO ../mas_agent/ahb_master_driver.sv(421) @ 475: uvm_test_top.env_h.ahb_uvc_h[0].mas_agent_h[0].mas_drv_h [uvm_driver #(REQ,RSP)] ADDR PHASE!!going to be end!!
# UVM_INFO ../mas_agent/ahb_master_monitor.sv(138) @ 475: uvm_test_top.env_h.ahb_uvc_h[0].mas_agent_h[0].mas_mon_h [MASTER MONITOR] INSIDE DATA PHASE OF MAS MON
# UVM_INFO ../mas_agent/ahb_master_monitor.sv(144) @ 475: uvm_test_top.env_h.ahb_uvc_h[0].mas_agent_h[0].mas_mon_h [MASTER MONITOR] THIS IS MONITOR DATA_PHASE SENDING TRANSECTION
# ------------------------------------------------------------------
# NAME           TYPE        SUB-TYPE     SIZE          VALUE
# ------------------------------------------------------------------
# HWRITE        integral      binary        1          0
# HADDR         integral      hex          32         00000000
# HWDATA        integral      hex          32         '{780028426}
# hburst_type   hburst_enum   enum          3          SINGLE
# hsize_type    hsize_enum    enum          3          HALFWORD
# htrans_type   htrans_enum   enum          3          '{NONSEQ}
# HRDATA        integral      hex          32         00004a0a
# hresp_type    htrans_enum   enum          2          OKAY
# hready        hready        bit           1          1
# -------------------------------------------------------------------
# UVM_INFO ../env/ahb_scoreboard.sv(75) @ 475: uvm_test_top.env_h.ahb_sb_h [SCOREBOARD] THIS IS SCOREBOARD RECEIVED TRANSECTION FROM MASTER
# UVM_INFO ../mas_agent/ahb_master_monitor.sv(114) @ 475: uvm_test_top.env_h.ahb_uvc_h[0].mas_agent_h[0].mas_mon_h [MASTER MONITOR] INSIDE ADDR PHASE OF MAS MON
# UVM_INFO ../mas_agent/ahb_master_monitor.sv(122) @ 475: uvm_test_top.env_h.ahb_uvc_h[0].mas_agent_h[0].mas_mon_h [MASTER MONITOR] THIS IS MONITOR ADDR PHASE SENDING TRANSECTION
# ------------------------------------------------------------------
# NAME           TYPE        SUB-TYPE     SIZE          VALUE
# ------------------------------------------------------------------
# HWRITE        integral      binary        1          1
# HADDR         integral      hex          32         00000000
# HWDATA        integral      hex          32         '{780028426}
# hburst_type   hburst_enum   enum          3          SINGLE
# hsize_type    hsize_enum    enum          3          WORD
# htrans_type   htrans_enum   enum          3          '{NONSEQ}
# HRDATA        integral      hex          32         00004a0a
# hresp_type    htrans_enum   enum          2          OKAY
# hready        hready        bit           1          1
# -------------------------------------------------------------------
# UVM_INFO ../mas_agent/ahb_master_checker.sv(126) @ 475: uvm_test_top.env_h.ahb_uvc_h[0].mas_agent_h[0].mas_chk_h [MASTER CHECKER] THIS IS CHECKER RECEIVED TRANSECTION
# ------------------------------------------------------------------
# NAME           TYPE        SUB-TYPE     SIZE          VALUE
# ------------------------------------------------------------------
# HWRITE        integral      binary        1          1
# HADDR         integral      hex          32         00000000
# HWDATA        integral      hex          32         '{780028426}
# hburst_type   hburst_enum   enum          3          SINGLE
# hsize_type    hsize_enum    enum          3          WORD
# htrans_type   htrans_enum   enum          3          '{NONSEQ}
# HRDATA        integral      hex          32         00004a0a
# hresp_type    htrans_enum   enum          2          OKAY
# hready        hready        bit           1          1
# -------------------------------------------------------------------
# UVM_INFO ../mas_agent/ahb_master_checker.sv(145) @ 475: uvm_test_top.env_h.ahb_uvc_h[0].mas_agent_h[0].mas_chk_h [ahb_mas_checker] size of check trans q = 1 | res = 1
# UVM_INFO ../slv_agent/ahb_slave_driver.sv(62) @ 475: uvm_test_top.env_h.ahb_uvc_h[1].slv_agent_h[0].slv_drv_h [SLAVE_DRIVER] THIS IS BEFOR GET NEXT ITEM
# UVM_INFO ../slv_agent/ahb_slave_monitor.sv(161) @ 475: uvm_test_top.env_h.ahb_uvc_h[1].slv_agent_h[0].slv_mon_h [SLAVE MONITOR] THIS IS INSIDE DATA PHASE OF SLAVE MONITOR
# UVM_INFO ../slv_agent/ahb_slave_monitor.sv(167) @ 475: uvm_test_top.env_h.ahb_uvc_h[1].slv_agent_h[0].slv_mon_h [SLAVE MONITOR] THIS IS SLAVE SENDING TRANSECTION TO SCOREBOARD AND SEQUENCE
# ------------------------------------------------------------------
# NAME           TYPE        SUB-TYPE     SIZE          VALUE
# ------------------------------------------------------------------
# HWRITE       integral      binary        1          0
# HADDR        integral      hex          32         00000000
# HWDATA       integral      hex          32         780028426
# hburst_type  hburst_enum   enum          3          SINGLE
# hsize_type   hsize_enum    enum          3          HALFWORD
# htrans_type  htrans_enum   enum          1          NONSEQ
# HRDATA       integral      hex          32         00004a0a
# hresp_type   hresp_enum    enum          1          OKAY
# HREADYOUT    integral      binary        1          0
# -------------------------------------------------------------------
# UVM_INFO ../env/ahb_scoreboard.sv(105) @ 475: uvm_test_top.env_h.ahb_sb_h [SCOREBOARD] THIS IS SCOREBOARD RECEIVED TRANSECTION FROM SLAVE
# UVM_INFO ../env/ahb_scoreboard.sv(113) @ 475: uvm_test_top.env_h.ahb_sb_h [PASS] slave addr in scoreboard - 0
# UVM_INFO ../env/ahb_scoreboard.sv(113) @ 475: uvm_test_top.env_h.ahb_sb_h [PASS] slave addr in scoreboard - 1
# UVM_INFO ../env/ahb_scoreboard.sv(122) @ 475: uvm_test_top.env_h.ahb_sb_h [PASS] write data from mas and read data from slv MATCHED!!
# UVM_INFO ../env/ahb_scoreboard.sv(123) @ 475: uvm_test_top.env_h.ahb_sb_h [PASS] WRITE DATA - 18954  |  READ DATA - 18954
# UVM_INFO ../slv_agent/ahb_slave_monitor.sv(121) @ 475: uvm_test_top.env_h.ahb_uvc_h[1].slv_agent_h[0].slv_mon_h [SLAVE MONITOR] THIS IS INSIDE ADDR PHASE OF SLAVE MONITOR
# UVM_INFO ../slv_agent/ahb_slave_monitor.sv(129) @ 475: uvm_test_top.env_h.ahb_uvc_h[1].slv_agent_h[0].slv_mon_h [SLAVE MONITOR] THIS IS SLAVE SENDING TRANSECTION TO SEQUENCE
# ------------------------------------------------------------------
# NAME           TYPE        SUB-TYPE     SIZE          VALUE
# ------------------------------------------------------------------
# HWRITE       integral      binary        1          1
# HADDR        integral      hex          32         00000000
# HWDATA       integral      hex          32         780028426
# hburst_type  hburst_enum   enum          3          SINGLE
# hsize_type   hsize_enum    enum          3          WORD
# htrans_type  htrans_enum   enum          1          NONSEQ
# HRDATA       integral      hex          32         00004a0a
# hresp_type   hresp_enum    enum          1          OKAY
# HREADYOUT    integral      binary        1          0
# -------------------------------------------------------------------
# UVM_INFO ../seq/ahb_slave_mem_response_sequence.sv(53) @ 475: uvm_test_top.env_h.ahb_uvc_h[1].slv_agent_h[0].slv_seqr_h@@<unknown> [SLAVE SEQUENCE] This Is Slave Sequence Collected Transaction
# ------------------------------------------------------------------
# NAME           TYPE        SUB-TYPE     SIZE          VALUE
# ------------------------------------------------------------------
# HWRITE       integral      binary        1          1
# HADDR        integral      hex          32         00000000
# HWDATA       integral      hex          32         780028426
# hburst_type  hburst_enum   enum          3          SINGLE
# hsize_type   hsize_enum    enum          3          WORD
# htrans_type  htrans_enum   enum          1          NONSEQ
# HRDATA       integral      hex          32         00004a0a
# hresp_type   hresp_enum    enum          1          OKAY
# HREADYOUT    integral      binary        1          0
# -------------------------------------------------------------------
# UVM_INFO ../slv_agent/ahb_slave_driver.sv(89) @ 475: uvm_test_top.env_h.ahb_uvc_h[1].slv_agent_h[0].slv_drv_h [SLAVE DRIVER] THIS IS INSIDE SLAVE DRIVER
# ------------------------------------------------------------------
# NAME           TYPE        SUB-TYPE     SIZE          VALUE
# ------------------------------------------------------------------
# HWRITE       integral      binary        1          1
# HADDR        integral      hex          32         00000000
# HWDATA       integral      hex          32         780028426
# hburst_type  hburst_enum   enum          3          SINGLE
# hsize_type   hsize_enum    enum          3          WORD
# htrans_type  htrans_enum   enum          1          NONSEQ
# HRDATA       integral      hex          32         00004a0a
# hresp_type   hresp_enum    enum          1          OKAY
# HREADYOUT    integral      binary        1          1
# -------------------------------------------------------------------
# UVM_INFO ../slv_agent/ahb_slave_driver.sv(121) @ 475: uvm_test_top.env_h.ahb_uvc_h[1].slv_agent_h[0].slv_drv_h [SLAVE DRIVER] THIS IS INSIDE READ OKAY RESP
# UVM_INFO ../mas_agent/ahb_master_driver.sv(107) @ 475: uvm_test_top.env_h.ahb_uvc_h[0].mas_agent_h[0].mas_drv_h [MASTER DRIVER] THIS IS INSIDE MASTER DRIVER
# ------------------------------------------------------------------
# NAME           TYPE        SUB-TYPE     SIZE          VALUE
# ------------------------------------------------------------------
# HWRITE        integral      binary        1          0
# HADDR         integral      hex          32         00000000
# HWDATA        integral      hex          32         '{1279936032}
# hburst_type   hburst_enum   enum          3          SINGLE
# hsize_type    hsize_enum    enum          3          HALFWORD
# htrans_type   htrans_enum   enum          3          '{NONSEQ}
# HRDATA        integral      hex          32         00000000
# hresp_type    htrans_enum   enum          2          OKAY
# hready        hready        bit           1          0
# -------------------------------------------------------------------
# UVM_INFO ../mas_agent/ahb_master_driver.sv(190) @ 475: uvm_test_top.env_h.ahb_uvc_h[0].mas_agent_h[0].mas_drv_h [MASTER DRIVER] THIS IS INSIDE ADDR PHASE
# UVM_INFO ../mas_agent/ahb_master_driver.sv(228) @ 475: uvm_test_top.env_h.ahb_uvc_h[0].mas_agent_h[0].mas_drv_h [MASTER DRIVER] THIS IS INSIDE FIRST NONSEQ
# UVM_INFO ../mas_agent/ahb_master_driver.sv(435) @ 475: uvm_test_top.env_h.ahb_uvc_h[0].mas_agent_h[0].mas_drv_h [MASTER DRIVER] THIS IS INSIDE DATA PHASE
# UVM_INFO ../mas_agent/ahb_master_driver.sv(480) @ 475: uvm_test_top.env_h.ahb_uvc_h[0].mas_agent_h[0].mas_drv_h [MASTER DRIVER] THIS IS INSIDE READ SCENARIO DATA PHASE
# UVM_INFO ../mas_agent/ahb_master_driver.sv(484) @ 525: uvm_test_top.env_h.ahb_uvc_h[0].mas_agent_h[0].mas_drv_h [MASTER DRIVER] THIS IS LOOP_COUNT -- 0
# UVM_INFO ../mas_agent/ahb_master_driver.sv(497) @ 525: uvm_test_top.env_h.ahb_uvc_h[0].mas_agent_h[0].mas_drv_h [uvm_driver #(REQ,RSP)] DATA PHASE!!size of queue=========='{}
# UVM_INFO ../mas_agent/ahb_master_driver.sv(504) @ 525: uvm_test_top.env_h.ahb_uvc_h[0].mas_agent_h[0].mas_drv_h [uvm_driver #(REQ,RSP)] DATA PHASE!!going to be end!!
# UVM_INFO ../mas_agent/ahb_master_driver.sv(421) @ 525: uvm_test_top.env_h.ahb_uvc_h[0].mas_agent_h[0].mas_drv_h [uvm_driver #(REQ,RSP)] ADDR PHASE!!going to be end!!
# UVM_INFO ../mas_agent/ahb_master_monitor.sv(138) @ 525: uvm_test_top.env_h.ahb_uvc_h[0].mas_agent_h[0].mas_mon_h [MASTER MONITOR] INSIDE DATA PHASE OF MAS MON
# UVM_INFO ../mas_agent/ahb_master_monitor.sv(144) @ 525: uvm_test_top.env_h.ahb_uvc_h[0].mas_agent_h[0].mas_mon_h [MASTER MONITOR] THIS IS MONITOR DATA_PHASE SENDING TRANSECTION
# ------------------------------------------------------------------
# NAME           TYPE        SUB-TYPE     SIZE          VALUE
# ------------------------------------------------------------------
# HWRITE        integral      binary        1          1
# HADDR         integral      hex          32         00000000
# HWDATA        integral      hex          32         '{4093061315}
# hburst_type   hburst_enum   enum          3          SINGLE
# hsize_type    hsize_enum    enum          3          WORD
# htrans_type   htrans_enum   enum          3          '{NONSEQ}
# HRDATA        integral      hex          32         00004a0a
# hresp_type    htrans_enum   enum          2          OKAY
# hready        hready        bit           1          1
# -------------------------------------------------------------------
# UVM_INFO ../env/ahb_scoreboard.sv(75) @ 525: uvm_test_top.env_h.ahb_sb_h [SCOREBOARD] THIS IS SCOREBOARD RECEIVED TRANSECTION FROM MASTER
# UVM_INFO ../env/ahb_scoreboard.sv(80) @ 525: uvm_test_top.env_h.ahb_sb_h [SCOREBOARD] COMES IN SCOREBOARD MAS-WRITE TASK
# UVM_INFO ../env/ahb_scoreboard.sv(89) @ 525: uvm_test_top.env_h.ahb_sb_h [SCOREBOARD] ADDR - 0  | DATA - 195
# UVM_INFO ../env/ahb_scoreboard.sv(89) @ 525: uvm_test_top.env_h.ahb_sb_h [SCOREBOARD] ADDR - 1  | DATA - 40
# UVM_INFO ../env/ahb_scoreboard.sv(89) @ 525: uvm_test_top.env_h.ahb_sb_h [SCOREBOARD] ADDR - 2  | DATA - 247
# UVM_INFO ../env/ahb_scoreboard.sv(89) @ 525: uvm_test_top.env_h.ahb_sb_h [SCOREBOARD] ADDR - 3  | DATA - 243
# UVM_INFO ../mas_agent/ahb_master_monitor.sv(114) @ 525: uvm_test_top.env_h.ahb_uvc_h[0].mas_agent_h[0].mas_mon_h [MASTER MONITOR] INSIDE ADDR PHASE OF MAS MON
# UVM_INFO ../mas_agent/ahb_master_monitor.sv(122) @ 525: uvm_test_top.env_h.ahb_uvc_h[0].mas_agent_h[0].mas_mon_h [MASTER MONITOR] THIS IS MONITOR ADDR PHASE SENDING TRANSECTION
# ------------------------------------------------------------------
# NAME           TYPE        SUB-TYPE     SIZE          VALUE
# ------------------------------------------------------------------
# HWRITE        integral      binary        1          0
# HADDR         integral      hex          32         00000000
# HWDATA        integral      hex          32         '{4093061315}
# hburst_type   hburst_enum   enum          3          SINGLE
# hsize_type    hsize_enum    enum          3          HALFWORD
# htrans_type   htrans_enum   enum          3          '{NONSEQ}
# HRDATA        integral      hex          32         00004a0a
# hresp_type    htrans_enum   enum          2          OKAY
# hready        hready        bit           1          1
# -------------------------------------------------------------------
# UVM_INFO ../mas_agent/ahb_master_checker.sv(126) @ 525: uvm_test_top.env_h.ahb_uvc_h[0].mas_agent_h[0].mas_chk_h [MASTER CHECKER] THIS IS CHECKER RECEIVED TRANSECTION
# ------------------------------------------------------------------
# NAME           TYPE        SUB-TYPE     SIZE          VALUE
# ------------------------------------------------------------------
# HWRITE        integral      binary        1          0
# HADDR         integral      hex          32         00000000
# HWDATA        integral      hex          32         '{4093061315}
# hburst_type   hburst_enum   enum          3          SINGLE
# hsize_type    hsize_enum    enum          3          HALFWORD
# htrans_type   htrans_enum   enum          3          '{NONSEQ}
# HRDATA        integral      hex          32         00004a0a
# hresp_type    htrans_enum   enum          2          OKAY
# hready        hready        bit           1          1
# -------------------------------------------------------------------
# UVM_INFO ../mas_agent/ahb_master_checker.sv(145) @ 525: uvm_test_top.env_h.ahb_uvc_h[0].mas_agent_h[0].mas_chk_h [ahb_mas_checker] size of check trans q = 1 | res = 1
# UVM_INFO ../slv_agent/ahb_slave_driver.sv(62) @ 525: uvm_test_top.env_h.ahb_uvc_h[1].slv_agent_h[0].slv_drv_h [SLAVE_DRIVER] THIS IS BEFOR GET NEXT ITEM
# UVM_INFO ../slv_agent/ahb_slave_monitor.sv(161) @ 525: uvm_test_top.env_h.ahb_uvc_h[1].slv_agent_h[0].slv_mon_h [SLAVE MONITOR] THIS IS INSIDE DATA PHASE OF SLAVE MONITOR
# UVM_INFO ../slv_agent/ahb_slave_monitor.sv(167) @ 525: uvm_test_top.env_h.ahb_uvc_h[1].slv_agent_h[0].slv_mon_h [SLAVE MONITOR] THIS IS SLAVE SENDING TRANSECTION TO SCOREBOARD AND SEQUENCE
# ------------------------------------------------------------------
# NAME           TYPE        SUB-TYPE     SIZE          VALUE
# ------------------------------------------------------------------
# HWRITE       integral      binary        1          1
# HADDR        integral      hex          32         00000000
# HWDATA       integral      hex          32         4093061315
# hburst_type  hburst_enum   enum          3          SINGLE
# hsize_type   hsize_enum    enum          3          WORD
# htrans_type  htrans_enum   enum          1          NONSEQ
# HRDATA       integral      hex          32         00004a0a
# hresp_type   hresp_enum    enum          1          OKAY
# HREADYOUT    integral      binary        1          0
# -------------------------------------------------------------------
# UVM_INFO ../env/ahb_scoreboard.sv(105) @ 525: uvm_test_top.env_h.ahb_sb_h [SCOREBOARD] THIS IS SCOREBOARD RECEIVED TRANSECTION FROM SLAVE
# UVM_INFO ../slv_agent/ahb_slave_monitor.sv(121) @ 525: uvm_test_top.env_h.ahb_uvc_h[1].slv_agent_h[0].slv_mon_h [SLAVE MONITOR] THIS IS INSIDE ADDR PHASE OF SLAVE MONITOR
# UVM_INFO ../slv_agent/ahb_slave_monitor.sv(129) @ 525: uvm_test_top.env_h.ahb_uvc_h[1].slv_agent_h[0].slv_mon_h [SLAVE MONITOR] THIS IS SLAVE SENDING TRANSECTION TO SEQUENCE
# ------------------------------------------------------------------
# NAME           TYPE        SUB-TYPE     SIZE          VALUE
# ------------------------------------------------------------------
# HWRITE       integral      binary        1          0
# HADDR        integral      hex          32         00000000
# HWDATA       integral      hex          32         4093061315
# hburst_type  hburst_enum   enum          3          SINGLE
# hsize_type   hsize_enum    enum          3          HALFWORD
# htrans_type  htrans_enum   enum          1          NONSEQ
# HRDATA       integral      hex          32         00004a0a
# hresp_type   hresp_enum    enum          1          OKAY
# HREADYOUT    integral      binary        1          0
# -------------------------------------------------------------------
# UVM_INFO ../seq/ahb_slave_mem_response_sequence.sv(53) @ 525: uvm_test_top.env_h.ahb_uvc_h[1].slv_agent_h[0].slv_seqr_h@@<unknown> [SLAVE SEQUENCE] This Is Slave Sequence Collected Transaction
# ------------------------------------------------------------------
# NAME           TYPE        SUB-TYPE     SIZE          VALUE
# ------------------------------------------------------------------
# HWRITE       integral      binary        1          0
# HADDR        integral      hex          32         00000000
# HWDATA       integral      hex          32         4093061315
# hburst_type  hburst_enum   enum          3          SINGLE
# hsize_type   hsize_enum    enum          3          HALFWORD
# htrans_type  htrans_enum   enum          1          NONSEQ
# HRDATA       integral      hex          32         00004a0a
# hresp_type   hresp_enum    enum          1          OKAY
# HREADYOUT    integral      binary        1          0
# -------------------------------------------------------------------
# UVM_INFO ../seq/ahb_base_slave_sequence.sv(118) @ 525: uvm_test_top.env_h.ahb_uvc_h[1].slv_agent_h[0].slv_seqr_h@@<unknown> [SLAVE SEQUENCE] This Is Inside Write Transfer
# UVM_INFO ../seq/ahb_base_slave_sequence.sv(129) @ 525: uvm_test_top.env_h.ahb_uvc_h[1].slv_agent_h[0].slv_seqr_h@@<unknown> [SLAVE SEQUENCE] This Is Slave Sending Transfer To Sequencer
# ------------------------------------------------------------------
# NAME           TYPE        SUB-TYPE     SIZE          VALUE
# ------------------------------------------------------------------
# HWRITE       integral      binary        1          0
# HADDR        integral      hex          32         00000000
# HWDATA       integral      hex          32         4093061315
# hburst_type  hburst_enum   enum          3          SINGLE
# hsize_type   hsize_enum    enum          3          HALFWORD
# htrans_type  htrans_enum   enum          1          NONSEQ
# HRDATA       integral      hex          32         00004a0a
# hresp_type   hresp_enum    enum          1          OKAY
# HREADYOUT    integral      binary        1          0
# -------------------------------------------------------------------
# UVM_INFO ../seq/ahb_base_slave_sequence.sv(71) @ 525: uvm_test_top.env_h.ahb_uvc_h[1].slv_agent_h[0].slv_seqr_h@@<unknown> [SLAVE SEQUENCE] This Is Read Transfer
# UVM_INFO ../seq/ahb_base_slave_sequence.sv(83) @ 525: uvm_test_top.env_h.ahb_uvc_h[1].slv_agent_h[0].slv_seqr_h@@<unknown> [SLAVE SEQUENCE] This Slave Sending Transaction To The Sequencer
# ------------------------------------------------------------------
# NAME           TYPE        SUB-TYPE     SIZE          VALUE
# ------------------------------------------------------------------
# HWRITE       integral      binary        1          0
# HADDR        integral      hex          32         00000000
# HWDATA       integral      hex          32         4093061315
# hburst_type  hburst_enum   enum          3          SINGLE
# hsize_type   hsize_enum    enum          3          HALFWORD
# htrans_type  htrans_enum   enum          1          NONSEQ
# HRDATA       integral      hex          32         000028c3
# hresp_type   hresp_enum    enum          1          OKAY
# HREADYOUT    integral      binary        1          0
# -------------------------------------------------------------------
# UVM_INFO ../slv_agent/ahb_slave_driver.sv(89) @ 525: uvm_test_top.env_h.ahb_uvc_h[1].slv_agent_h[0].slv_drv_h [SLAVE DRIVER] THIS IS INSIDE SLAVE DRIVER
# ------------------------------------------------------------------
# NAME           TYPE        SUB-TYPE     SIZE          VALUE
# ------------------------------------------------------------------
# HWRITE       integral      binary        1          0
# HADDR        integral      hex          32         00000000
# HWDATA       integral      hex          32         4093061315
# hburst_type  hburst_enum   enum          3          SINGLE
# hsize_type   hsize_enum    enum          3          HALFWORD
# htrans_type  htrans_enum   enum          1          NONSEQ
# HRDATA       integral      hex          32         000028c3
# hresp_type   hresp_enum    enum          1          OKAY
# HREADYOUT    integral      binary        1          1
# -------------------------------------------------------------------
# UVM_INFO ../slv_agent/ahb_slave_driver.sv(121) @ 525: uvm_test_top.env_h.ahb_uvc_h[1].slv_agent_h[0].slv_drv_h [SLAVE DRIVER] THIS IS INSIDE READ OKAY RESP
# UVM_INFO ../mas_agent/ahb_master_driver.sv(107) @ 525: uvm_test_top.env_h.ahb_uvc_h[0].mas_agent_h[0].mas_drv_h [MASTER DRIVER] THIS IS INSIDE MASTER DRIVER
# ------------------------------------------------------------------
# NAME           TYPE        SUB-TYPE     SIZE          VALUE
# ------------------------------------------------------------------
# HWRITE        integral      binary        1          1
# HADDR         integral      hex          32         00000000
# HWDATA        integral      hex          32         '{4228147897}
# hburst_type   hburst_enum   enum          3          SINGLE
# hsize_type    hsize_enum    enum          3          WORD
# htrans_type   htrans_enum   enum          3          '{NONSEQ}
# HRDATA        integral      hex          32         00000000
# hresp_type    htrans_enum   enum          2          OKAY
# hready        hready        bit           1          0
# -------------------------------------------------------------------
# UVM_INFO ../mas_agent/ahb_master_driver.sv(190) @ 525: uvm_test_top.env_h.ahb_uvc_h[0].mas_agent_h[0].mas_drv_h [MASTER DRIVER] THIS IS INSIDE ADDR PHASE
# UVM_INFO ../mas_agent/ahb_master_driver.sv(228) @ 525: uvm_test_top.env_h.ahb_uvc_h[0].mas_agent_h[0].mas_drv_h [MASTER DRIVER] THIS IS INSIDE FIRST NONSEQ
# UVM_INFO ../mas_agent/ahb_master_driver.sv(435) @ 525: uvm_test_top.env_h.ahb_uvc_h[0].mas_agent_h[0].mas_drv_h [MASTER DRIVER] THIS IS INSIDE DATA PHASE
# UVM_INFO ../mas_agent/ahb_master_driver.sv(441) @ 525: uvm_test_top.env_h.ahb_uvc_h[0].mas_agent_h[0].mas_drv_h [MASTER DRIVER] THIS IS INSIDE WRITE SCENARIO DATA PHASE
# UVM_INFO ../mas_agent/ahb_master_driver.sv(444) @ 575: uvm_test_top.env_h.ahb_uvc_h[0].mas_agent_h[0].mas_drv_h [MASTER DRIVER] THIS IS LOOP_COUNT -- 0
# UVM_INFO ../mas_agent/ahb_master_driver.sv(448) @ 575: uvm_test_top.env_h.ahb_uvc_h[0].mas_agent_h[0].mas_drv_h [MASTER DRIVER] THIS IS INSIDE WRITE SCENARIO OKAY RESP DATA PHASE
# UVM_INFO ../mas_agent/ahb_master_driver.sv(450) @ 575: uvm_test_top.env_h.ahb_uvc_h[0].mas_agent_h[0].mas_drv_h [MASTER DRIVER] THIS IS TRANS -- 4228147897
# UVM_INFO ../mas_agent/ahb_master_driver.sv(462) @ 575: uvm_test_top.env_h.ahb_uvc_h[0].mas_agent_h[0].mas_drv_h [MASTER DRIVER] THIS IS INSIDE DATA SENDING TO THE INTERFACE
# UVM_INFO ../mas_agent/ahb_master_driver.sv(497) @ 575: uvm_test_top.env_h.ahb_uvc_h[0].mas_agent_h[0].mas_drv_h [uvm_driver #(REQ,RSP)] DATA PHASE!!size of queue=========='{}
# UVM_INFO ../mas_agent/ahb_master_driver.sv(504) @ 575: uvm_test_top.env_h.ahb_uvc_h[0].mas_agent_h[0].mas_drv_h [uvm_driver #(REQ,RSP)] DATA PHASE!!going to be end!!
# UVM_INFO ../mas_agent/ahb_master_driver.sv(421) @ 575: uvm_test_top.env_h.ahb_uvc_h[0].mas_agent_h[0].mas_drv_h [uvm_driver #(REQ,RSP)] ADDR PHASE!!going to be end!!
# UVM_INFO ../mas_agent/ahb_master_monitor.sv(138) @ 575: uvm_test_top.env_h.ahb_uvc_h[0].mas_agent_h[0].mas_mon_h [MASTER MONITOR] INSIDE DATA PHASE OF MAS MON
# UVM_INFO ../mas_agent/ahb_master_monitor.sv(144) @ 575: uvm_test_top.env_h.ahb_uvc_h[0].mas_agent_h[0].mas_mon_h [MASTER MONITOR] THIS IS MONITOR DATA_PHASE SENDING TRANSECTION
# ------------------------------------------------------------------
# NAME           TYPE        SUB-TYPE     SIZE          VALUE
# ------------------------------------------------------------------
# HWRITE        integral      binary        1          0
# HADDR         integral      hex          32         00000000
# HWDATA        integral      hex          32         '{4093061315}
# hburst_type   hburst_enum   enum          3          SINGLE
# hsize_type    hsize_enum    enum          3          HALFWORD
# htrans_type   htrans_enum   enum          3          '{NONSEQ}
# HRDATA        integral      hex          32         000028c3
# hresp_type    htrans_enum   enum          2          OKAY
# hready        hready        bit           1          1
# -------------------------------------------------------------------
# UVM_INFO ../env/ahb_scoreboard.sv(75) @ 575: uvm_test_top.env_h.ahb_sb_h [SCOREBOARD] THIS IS SCOREBOARD RECEIVED TRANSECTION FROM MASTER
# UVM_INFO ../mas_agent/ahb_master_monitor.sv(114) @ 575: uvm_test_top.env_h.ahb_uvc_h[0].mas_agent_h[0].mas_mon_h [MASTER MONITOR] INSIDE ADDR PHASE OF MAS MON
# UVM_INFO ../mas_agent/ahb_master_monitor.sv(122) @ 575: uvm_test_top.env_h.ahb_uvc_h[0].mas_agent_h[0].mas_mon_h [MASTER MONITOR] THIS IS MONITOR ADDR PHASE SENDING TRANSECTION
# ------------------------------------------------------------------
# NAME           TYPE        SUB-TYPE     SIZE          VALUE
# ------------------------------------------------------------------
# HWRITE        integral      binary        1          1
# HADDR         integral      hex          32         00000000
# HWDATA        integral      hex          32         '{4093061315}
# hburst_type   hburst_enum   enum          3          SINGLE
# hsize_type    hsize_enum    enum          3          WORD
# htrans_type   htrans_enum   enum          3          '{NONSEQ}
# HRDATA        integral      hex          32         000028c3
# hresp_type    htrans_enum   enum          2          OKAY
# hready        hready        bit           1          1
# -------------------------------------------------------------------
# UVM_INFO ../mas_agent/ahb_master_checker.sv(126) @ 575: uvm_test_top.env_h.ahb_uvc_h[0].mas_agent_h[0].mas_chk_h [MASTER CHECKER] THIS IS CHECKER RECEIVED TRANSECTION
# ------------------------------------------------------------------
# NAME           TYPE        SUB-TYPE     SIZE          VALUE
# ------------------------------------------------------------------
# HWRITE        integral      binary        1          1
# HADDR         integral      hex          32         00000000
# HWDATA        integral      hex          32         '{4093061315}
# hburst_type   hburst_enum   enum          3          SINGLE
# hsize_type    hsize_enum    enum          3          WORD
# htrans_type   htrans_enum   enum          3          '{NONSEQ}
# HRDATA        integral      hex          32         000028c3
# hresp_type    htrans_enum   enum          2          OKAY
# hready        hready        bit           1          1
# -------------------------------------------------------------------
# UVM_INFO ../mas_agent/ahb_master_checker.sv(145) @ 575: uvm_test_top.env_h.ahb_uvc_h[0].mas_agent_h[0].mas_chk_h [ahb_mas_checker] size of check trans q = 1 | res = 1
# UVM_INFO ../slv_agent/ahb_slave_driver.sv(62) @ 575: uvm_test_top.env_h.ahb_uvc_h[1].slv_agent_h[0].slv_drv_h [SLAVE_DRIVER] THIS IS BEFOR GET NEXT ITEM
# UVM_INFO ../slv_agent/ahb_slave_monitor.sv(161) @ 575: uvm_test_top.env_h.ahb_uvc_h[1].slv_agent_h[0].slv_mon_h [SLAVE MONITOR] THIS IS INSIDE DATA PHASE OF SLAVE MONITOR
# UVM_INFO ../slv_agent/ahb_slave_monitor.sv(167) @ 575: uvm_test_top.env_h.ahb_uvc_h[1].slv_agent_h[0].slv_mon_h [SLAVE MONITOR] THIS IS SLAVE SENDING TRANSECTION TO SCOREBOARD AND SEQUENCE
# ------------------------------------------------------------------
# NAME           TYPE        SUB-TYPE     SIZE          VALUE
# ------------------------------------------------------------------
# HWRITE       integral      binary        1          0
# HADDR        integral      hex          32         00000000
# HWDATA       integral      hex          32         4093061315
# hburst_type  hburst_enum   enum          3          SINGLE
# hsize_type   hsize_enum    enum          3          HALFWORD
# htrans_type  htrans_enum   enum          1          NONSEQ
# HRDATA       integral      hex          32         000028c3
# hresp_type   hresp_enum    enum          1          OKAY
# HREADYOUT    integral      binary        1          0
# -------------------------------------------------------------------
# UVM_INFO ../env/ahb_scoreboard.sv(105) @ 575: uvm_test_top.env_h.ahb_sb_h [SCOREBOARD] THIS IS SCOREBOARD RECEIVED TRANSECTION FROM SLAVE
# UVM_INFO ../env/ahb_scoreboard.sv(113) @ 575: uvm_test_top.env_h.ahb_sb_h [PASS] slave addr in scoreboard - 0
# UVM_INFO ../env/ahb_scoreboard.sv(113) @ 575: uvm_test_top.env_h.ahb_sb_h [PASS] slave addr in scoreboard - 1
# UVM_INFO ../env/ahb_scoreboard.sv(122) @ 575: uvm_test_top.env_h.ahb_sb_h [PASS] write data from mas and read data from slv MATCHED!!
# UVM_INFO ../env/ahb_scoreboard.sv(123) @ 575: uvm_test_top.env_h.ahb_sb_h [PASS] WRITE DATA - 10435  |  READ DATA - 10435
# UVM_INFO ../slv_agent/ahb_slave_monitor.sv(121) @ 575: uvm_test_top.env_h.ahb_uvc_h[1].slv_agent_h[0].slv_mon_h [SLAVE MONITOR] THIS IS INSIDE ADDR PHASE OF SLAVE MONITOR
# UVM_INFO ../slv_agent/ahb_slave_monitor.sv(129) @ 575: uvm_test_top.env_h.ahb_uvc_h[1].slv_agent_h[0].slv_mon_h [SLAVE MONITOR] THIS IS SLAVE SENDING TRANSECTION TO SEQUENCE
# ------------------------------------------------------------------
# NAME           TYPE        SUB-TYPE     SIZE          VALUE
# ------------------------------------------------------------------
# HWRITE       integral      binary        1          1
# HADDR        integral      hex          32         00000000
# HWDATA       integral      hex          32         4093061315
# hburst_type  hburst_enum   enum          3          SINGLE
# hsize_type   hsize_enum    enum          3          WORD
# htrans_type  htrans_enum   enum          1          NONSEQ
# HRDATA       integral      hex          32         000028c3
# hresp_type   hresp_enum    enum          1          OKAY
# HREADYOUT    integral      binary        1          0
# -------------------------------------------------------------------
# UVM_INFO ../seq/ahb_slave_mem_response_sequence.sv(53) @ 575: uvm_test_top.env_h.ahb_uvc_h[1].slv_agent_h[0].slv_seqr_h@@<unknown> [SLAVE SEQUENCE] This Is Slave Sequence Collected Transaction
# ------------------------------------------------------------------
# NAME           TYPE        SUB-TYPE     SIZE          VALUE
# ------------------------------------------------------------------
# HWRITE       integral      binary        1          1
# HADDR        integral      hex          32         00000000
# HWDATA       integral      hex          32         4093061315
# hburst_type  hburst_enum   enum          3          SINGLE
# hsize_type   hsize_enum    enum          3          WORD
# htrans_type  htrans_enum   enum          1          NONSEQ
# HRDATA       integral      hex          32         000028c3
# hresp_type   hresp_enum    enum          1          OKAY
# HREADYOUT    integral      binary        1          0
# -------------------------------------------------------------------
# UVM_INFO ../slv_agent/ahb_slave_driver.sv(89) @ 575: uvm_test_top.env_h.ahb_uvc_h[1].slv_agent_h[0].slv_drv_h [SLAVE DRIVER] THIS IS INSIDE SLAVE DRIVER
# ------------------------------------------------------------------
# NAME           TYPE        SUB-TYPE     SIZE          VALUE
# ------------------------------------------------------------------
# HWRITE       integral      binary        1          1
# HADDR        integral      hex          32         00000000
# HWDATA       integral      hex          32         4093061315
# hburst_type  hburst_enum   enum          3          SINGLE
# hsize_type   hsize_enum    enum          3          WORD
# htrans_type  htrans_enum   enum          1          NONSEQ
# HRDATA       integral      hex          32         000028c3
# hresp_type   hresp_enum    enum          1          OKAY
# HREADYOUT    integral      binary        1          1
# -------------------------------------------------------------------
# UVM_INFO ../slv_agent/ahb_slave_driver.sv(121) @ 575: uvm_test_top.env_h.ahb_uvc_h[1].slv_agent_h[0].slv_drv_h [SLAVE DRIVER] THIS IS INSIDE READ OKAY RESP
# UVM_INFO ../mas_agent/ahb_master_driver.sv(107) @ 575: uvm_test_top.env_h.ahb_uvc_h[0].mas_agent_h[0].mas_drv_h [MASTER DRIVER] THIS IS INSIDE MASTER DRIVER
# ------------------------------------------------------------------
# NAME           TYPE        SUB-TYPE     SIZE          VALUE
# ------------------------------------------------------------------
# HWRITE        integral      binary        1          0
# HADDR         integral      hex          32         00000000
# HWDATA        integral      hex          32         '{3442608025}
# hburst_type   hburst_enum   enum          3          SINGLE
# hsize_type    hsize_enum    enum          3          HALFWORD
# htrans_type   htrans_enum   enum          3          '{NONSEQ}
# HRDATA        integral      hex          32         00000000
# hresp_type    htrans_enum   enum          2          OKAY
# hready        hready        bit           1          0
# -------------------------------------------------------------------
# UVM_INFO ../mas_agent/ahb_master_driver.sv(190) @ 575: uvm_test_top.env_h.ahb_uvc_h[0].mas_agent_h[0].mas_drv_h [MASTER DRIVER] THIS IS INSIDE ADDR PHASE
# UVM_INFO ../mas_agent/ahb_master_driver.sv(228) @ 575: uvm_test_top.env_h.ahb_uvc_h[0].mas_agent_h[0].mas_drv_h [MASTER DRIVER] THIS IS INSIDE FIRST NONSEQ
# UVM_INFO ../mas_agent/ahb_master_driver.sv(435) @ 575: uvm_test_top.env_h.ahb_uvc_h[0].mas_agent_h[0].mas_drv_h [MASTER DRIVER] THIS IS INSIDE DATA PHASE
# UVM_INFO ../mas_agent/ahb_master_driver.sv(480) @ 575: uvm_test_top.env_h.ahb_uvc_h[0].mas_agent_h[0].mas_drv_h [MASTER DRIVER] THIS IS INSIDE READ SCENARIO DATA PHASE
# UVM_INFO ../mas_agent/ahb_master_driver.sv(484) @ 625: uvm_test_top.env_h.ahb_uvc_h[0].mas_agent_h[0].mas_drv_h [MASTER DRIVER] THIS IS LOOP_COUNT -- 0
# UVM_INFO ../mas_agent/ahb_master_driver.sv(497) @ 625: uvm_test_top.env_h.ahb_uvc_h[0].mas_agent_h[0].mas_drv_h [uvm_driver #(REQ,RSP)] DATA PHASE!!size of queue=========='{}
# UVM_INFO ../mas_agent/ahb_master_driver.sv(504) @ 625: uvm_test_top.env_h.ahb_uvc_h[0].mas_agent_h[0].mas_drv_h [uvm_driver #(REQ,RSP)] DATA PHASE!!going to be end!!
# UVM_INFO ../mas_agent/ahb_master_driver.sv(421) @ 625: uvm_test_top.env_h.ahb_uvc_h[0].mas_agent_h[0].mas_drv_h [uvm_driver #(REQ,RSP)] ADDR PHASE!!going to be end!!
# UVM_INFO ../mas_agent/ahb_master_monitor.sv(138) @ 625: uvm_test_top.env_h.ahb_uvc_h[0].mas_agent_h[0].mas_mon_h [MASTER MONITOR] INSIDE DATA PHASE OF MAS MON
# UVM_INFO ../mas_agent/ahb_master_monitor.sv(144) @ 625: uvm_test_top.env_h.ahb_uvc_h[0].mas_agent_h[0].mas_mon_h [MASTER MONITOR] THIS IS MONITOR DATA_PHASE SENDING TRANSECTION
# ------------------------------------------------------------------
# NAME           TYPE        SUB-TYPE     SIZE          VALUE
# ------------------------------------------------------------------
# HWRITE        integral      binary        1          1
# HADDR         integral      hex          32         00000000
# HWDATA        integral      hex          32         '{4228147897}
# hburst_type   hburst_enum   enum          3          SINGLE
# hsize_type    hsize_enum    enum          3          WORD
# htrans_type   htrans_enum   enum          3          '{NONSEQ}
# HRDATA        integral      hex          32         000028c3
# hresp_type    htrans_enum   enum          2          OKAY
# hready        hready        bit           1          1
# -------------------------------------------------------------------
# UVM_INFO ../env/ahb_scoreboard.sv(75) @ 625: uvm_test_top.env_h.ahb_sb_h [SCOREBOARD] THIS IS SCOREBOARD RECEIVED TRANSECTION FROM MASTER
# UVM_INFO ../env/ahb_scoreboard.sv(80) @ 625: uvm_test_top.env_h.ahb_sb_h [SCOREBOARD] COMES IN SCOREBOARD MAS-WRITE TASK
# UVM_INFO ../env/ahb_scoreboard.sv(89) @ 625: uvm_test_top.env_h.ahb_sb_h [SCOREBOARD] ADDR - 0  | DATA - 185
# UVM_INFO ../env/ahb_scoreboard.sv(89) @ 625: uvm_test_top.env_h.ahb_sb_h [SCOREBOARD] ADDR - 1  | DATA - 106
# UVM_INFO ../env/ahb_scoreboard.sv(89) @ 625: uvm_test_top.env_h.ahb_sb_h [SCOREBOARD] ADDR - 2  | DATA - 4
# UVM_INFO ../env/ahb_scoreboard.sv(89) @ 625: uvm_test_top.env_h.ahb_sb_h [SCOREBOARD] ADDR - 3  | DATA - 252
# UVM_INFO ../mas_agent/ahb_master_monitor.sv(114) @ 625: uvm_test_top.env_h.ahb_uvc_h[0].mas_agent_h[0].mas_mon_h [MASTER MONITOR] INSIDE ADDR PHASE OF MAS MON
# UVM_INFO ../mas_agent/ahb_master_monitor.sv(122) @ 625: uvm_test_top.env_h.ahb_uvc_h[0].mas_agent_h[0].mas_mon_h [MASTER MONITOR] THIS IS MONITOR ADDR PHASE SENDING TRANSECTION
# ------------------------------------------------------------------
# NAME           TYPE        SUB-TYPE     SIZE          VALUE
# ------------------------------------------------------------------
# HWRITE        integral      binary        1          0
# HADDR         integral      hex          32         00000000
# HWDATA        integral      hex          32         '{4228147897}
# hburst_type   hburst_enum   enum          3          SINGLE
# hsize_type    hsize_enum    enum          3          HALFWORD
# htrans_type   htrans_enum   enum          3          '{NONSEQ}
# HRDATA        integral      hex          32         000028c3
# hresp_type    htrans_enum   enum          2          OKAY
# hready        hready        bit           1          1
# -------------------------------------------------------------------
# UVM_INFO ../mas_agent/ahb_master_checker.sv(126) @ 625: uvm_test_top.env_h.ahb_uvc_h[0].mas_agent_h[0].mas_chk_h [MASTER CHECKER] THIS IS CHECKER RECEIVED TRANSECTION
# ------------------------------------------------------------------
# NAME           TYPE        SUB-TYPE     SIZE          VALUE
# ------------------------------------------------------------------
# HWRITE        integral      binary        1          0
# HADDR         integral      hex          32         00000000
# HWDATA        integral      hex          32         '{4228147897}
# hburst_type   hburst_enum   enum          3          SINGLE
# hsize_type    hsize_enum    enum          3          HALFWORD
# htrans_type   htrans_enum   enum          3          '{NONSEQ}
# HRDATA        integral      hex          32         000028c3
# hresp_type    htrans_enum   enum          2          OKAY
# hready        hready        bit           1          1
# -------------------------------------------------------------------
# UVM_INFO ../mas_agent/ahb_master_checker.sv(145) @ 625: uvm_test_top.env_h.ahb_uvc_h[0].mas_agent_h[0].mas_chk_h [ahb_mas_checker] size of check trans q = 1 | res = 1
# UVM_INFO ../slv_agent/ahb_slave_driver.sv(62) @ 625: uvm_test_top.env_h.ahb_uvc_h[1].slv_agent_h[0].slv_drv_h [SLAVE_DRIVER] THIS IS BEFOR GET NEXT ITEM
# UVM_INFO ../slv_agent/ahb_slave_monitor.sv(161) @ 625: uvm_test_top.env_h.ahb_uvc_h[1].slv_agent_h[0].slv_mon_h [SLAVE MONITOR] THIS IS INSIDE DATA PHASE OF SLAVE MONITOR
# UVM_INFO ../slv_agent/ahb_slave_monitor.sv(167) @ 625: uvm_test_top.env_h.ahb_uvc_h[1].slv_agent_h[0].slv_mon_h [SLAVE MONITOR] THIS IS SLAVE SENDING TRANSECTION TO SCOREBOARD AND SEQUENCE
# ------------------------------------------------------------------
# NAME           TYPE        SUB-TYPE     SIZE          VALUE
# ------------------------------------------------------------------
# HWRITE       integral      binary        1          1
# HADDR        integral      hex          32         00000000
# HWDATA       integral      hex          32         4228147897
# hburst_type  hburst_enum   enum          3          SINGLE
# hsize_type   hsize_enum    enum          3          WORD
# htrans_type  htrans_enum   enum          1          NONSEQ
# HRDATA       integral      hex          32         000028c3
# hresp_type   hresp_enum    enum          1          OKAY
# HREADYOUT    integral      binary        1          0
# -------------------------------------------------------------------
# UVM_INFO ../env/ahb_scoreboard.sv(105) @ 625: uvm_test_top.env_h.ahb_sb_h [SCOREBOARD] THIS IS SCOREBOARD RECEIVED TRANSECTION FROM SLAVE
# UVM_INFO ../slv_agent/ahb_slave_monitor.sv(121) @ 625: uvm_test_top.env_h.ahb_uvc_h[1].slv_agent_h[0].slv_mon_h [SLAVE MONITOR] THIS IS INSIDE ADDR PHASE OF SLAVE MONITOR
# UVM_INFO ../slv_agent/ahb_slave_monitor.sv(129) @ 625: uvm_test_top.env_h.ahb_uvc_h[1].slv_agent_h[0].slv_mon_h [SLAVE MONITOR] THIS IS SLAVE SENDING TRANSECTION TO SEQUENCE
# ------------------------------------------------------------------
# NAME           TYPE        SUB-TYPE     SIZE          VALUE
# ------------------------------------------------------------------
# HWRITE       integral      binary        1          0
# HADDR        integral      hex          32         00000000
# HWDATA       integral      hex          32         4228147897
# hburst_type  hburst_enum   enum          3          SINGLE
# hsize_type   hsize_enum    enum          3          HALFWORD
# htrans_type  htrans_enum   enum          1          NONSEQ
# HRDATA       integral      hex          32         000028c3
# hresp_type   hresp_enum    enum          1          OKAY
# HREADYOUT    integral      binary        1          0
# -------------------------------------------------------------------
# UVM_INFO ../seq/ahb_slave_mem_response_sequence.sv(53) @ 625: uvm_test_top.env_h.ahb_uvc_h[1].slv_agent_h[0].slv_seqr_h@@<unknown> [SLAVE SEQUENCE] This Is Slave Sequence Collected Transaction
# ------------------------------------------------------------------
# NAME           TYPE        SUB-TYPE     SIZE          VALUE
# ------------------------------------------------------------------
# HWRITE       integral      binary        1          0
# HADDR        integral      hex          32         00000000
# HWDATA       integral      hex          32         4228147897
# hburst_type  hburst_enum   enum          3          SINGLE
# hsize_type   hsize_enum    enum          3          HALFWORD
# htrans_type  htrans_enum   enum          1          NONSEQ
# HRDATA       integral      hex          32         000028c3
# hresp_type   hresp_enum    enum          1          OKAY
# HREADYOUT    integral      binary        1          0
# -------------------------------------------------------------------
# UVM_INFO ../seq/ahb_base_slave_sequence.sv(118) @ 625: uvm_test_top.env_h.ahb_uvc_h[1].slv_agent_h[0].slv_seqr_h@@<unknown> [SLAVE SEQUENCE] This Is Inside Write Transfer
# UVM_INFO ../seq/ahb_base_slave_sequence.sv(129) @ 625: uvm_test_top.env_h.ahb_uvc_h[1].slv_agent_h[0].slv_seqr_h@@<unknown> [SLAVE SEQUENCE] This Is Slave Sending Transfer To Sequencer
# ------------------------------------------------------------------
# NAME           TYPE        SUB-TYPE     SIZE          VALUE
# ------------------------------------------------------------------
# HWRITE       integral      binary        1          0
# HADDR        integral      hex          32         00000000
# HWDATA       integral      hex          32         4228147897
# hburst_type  hburst_enum   enum          3          SINGLE
# hsize_type   hsize_enum    enum          3          HALFWORD
# htrans_type  htrans_enum   enum          1          NONSEQ
# HRDATA       integral      hex          32         000028c3
# hresp_type   hresp_enum    enum          1          OKAY
# HREADYOUT    integral      binary        1          0
# -------------------------------------------------------------------
# UVM_INFO ../seq/ahb_base_slave_sequence.sv(71) @ 625: uvm_test_top.env_h.ahb_uvc_h[1].slv_agent_h[0].slv_seqr_h@@<unknown> [SLAVE SEQUENCE] This Is Read Transfer
# UVM_INFO ../seq/ahb_base_slave_sequence.sv(83) @ 625: uvm_test_top.env_h.ahb_uvc_h[1].slv_agent_h[0].slv_seqr_h@@<unknown> [SLAVE SEQUENCE] This Slave Sending Transaction To The Sequencer
# ------------------------------------------------------------------
# NAME           TYPE        SUB-TYPE     SIZE          VALUE
# ------------------------------------------------------------------
# HWRITE       integral      binary        1          0
# HADDR        integral      hex          32         00000000
# HWDATA       integral      hex          32         4228147897
# hburst_type  hburst_enum   enum          3          SINGLE
# hsize_type   hsize_enum    enum          3          HALFWORD
# htrans_type  htrans_enum   enum          1          NONSEQ
# HRDATA       integral      hex          32         00006ab9
# hresp_type   hresp_enum    enum          1          OKAY
# HREADYOUT    integral      binary        1          0
# -------------------------------------------------------------------
# UVM_INFO ../slv_agent/ahb_slave_driver.sv(89) @ 625: uvm_test_top.env_h.ahb_uvc_h[1].slv_agent_h[0].slv_drv_h [SLAVE DRIVER] THIS IS INSIDE SLAVE DRIVER
# ------------------------------------------------------------------
# NAME           TYPE        SUB-TYPE     SIZE          VALUE
# ------------------------------------------------------------------
# HWRITE       integral      binary        1          0
# HADDR        integral      hex          32         00000000
# HWDATA       integral      hex          32         4228147897
# hburst_type  hburst_enum   enum          3          SINGLE
# hsize_type   hsize_enum    enum          3          HALFWORD
# htrans_type  htrans_enum   enum          1          NONSEQ
# HRDATA       integral      hex          32         00006ab9
# hresp_type   hresp_enum    enum          1          OKAY
# HREADYOUT    integral      binary        1          1
# -------------------------------------------------------------------
# UVM_INFO ../slv_agent/ahb_slave_driver.sv(121) @ 625: uvm_test_top.env_h.ahb_uvc_h[1].slv_agent_h[0].slv_drv_h [SLAVE DRIVER] THIS IS INSIDE READ OKAY RESP
# UVM_INFO ../mas_agent/ahb_master_driver.sv(107) @ 625: uvm_test_top.env_h.ahb_uvc_h[0].mas_agent_h[0].mas_drv_h [MASTER DRIVER] THIS IS INSIDE MASTER DRIVER
# ------------------------------------------------------------------
# NAME           TYPE        SUB-TYPE     SIZE          VALUE
# ------------------------------------------------------------------
# HWRITE        integral      binary        1          1
# HADDR         integral      hex          32         00000000
# HWDATA        integral      hex          32         '{1456706949}
# hburst_type   hburst_enum   enum          3          SINGLE
# hsize_type    hsize_enum    enum          3          WORD
# htrans_type   htrans_enum   enum          3          '{NONSEQ}
# HRDATA        integral      hex          32         00000000
# hresp_type    htrans_enum   enum          2          OKAY
# hready        hready        bit           1          0
# -------------------------------------------------------------------
# UVM_INFO ../mas_agent/ahb_master_driver.sv(190) @ 625: uvm_test_top.env_h.ahb_uvc_h[0].mas_agent_h[0].mas_drv_h [MASTER DRIVER] THIS IS INSIDE ADDR PHASE
# UVM_INFO ../mas_agent/ahb_master_driver.sv(228) @ 625: uvm_test_top.env_h.ahb_uvc_h[0].mas_agent_h[0].mas_drv_h [MASTER DRIVER] THIS IS INSIDE FIRST NONSEQ
# UVM_INFO ../mas_agent/ahb_master_driver.sv(435) @ 625: uvm_test_top.env_h.ahb_uvc_h[0].mas_agent_h[0].mas_drv_h [MASTER DRIVER] THIS IS INSIDE DATA PHASE
# UVM_INFO ../mas_agent/ahb_master_driver.sv(441) @ 625: uvm_test_top.env_h.ahb_uvc_h[0].mas_agent_h[0].mas_drv_h [MASTER DRIVER] THIS IS INSIDE WRITE SCENARIO DATA PHASE
# UVM_INFO ../mas_agent/ahb_master_driver.sv(444) @ 675: uvm_test_top.env_h.ahb_uvc_h[0].mas_agent_h[0].mas_drv_h [MASTER DRIVER] THIS IS LOOP_COUNT -- 0
# UVM_INFO ../mas_agent/ahb_master_driver.sv(448) @ 675: uvm_test_top.env_h.ahb_uvc_h[0].mas_agent_h[0].mas_drv_h [MASTER DRIVER] THIS IS INSIDE WRITE SCENARIO OKAY RESP DATA PHASE
# UVM_INFO ../mas_agent/ahb_master_driver.sv(450) @ 675: uvm_test_top.env_h.ahb_uvc_h[0].mas_agent_h[0].mas_drv_h [MASTER DRIVER] THIS IS TRANS -- 1456706949
# UVM_INFO ../mas_agent/ahb_master_driver.sv(462) @ 675: uvm_test_top.env_h.ahb_uvc_h[0].mas_agent_h[0].mas_drv_h [MASTER DRIVER] THIS IS INSIDE DATA SENDING TO THE INTERFACE
# UVM_INFO ../mas_agent/ahb_master_driver.sv(497) @ 675: uvm_test_top.env_h.ahb_uvc_h[0].mas_agent_h[0].mas_drv_h [uvm_driver #(REQ,RSP)] DATA PHASE!!size of queue=========='{}
# UVM_INFO ../mas_agent/ahb_master_driver.sv(504) @ 675: uvm_test_top.env_h.ahb_uvc_h[0].mas_agent_h[0].mas_drv_h [uvm_driver #(REQ,RSP)] DATA PHASE!!going to be end!!
# UVM_INFO ../mas_agent/ahb_master_driver.sv(421) @ 675: uvm_test_top.env_h.ahb_uvc_h[0].mas_agent_h[0].mas_drv_h [uvm_driver #(REQ,RSP)] ADDR PHASE!!going to be end!!
# UVM_INFO ../mas_agent/ahb_master_monitor.sv(138) @ 675: uvm_test_top.env_h.ahb_uvc_h[0].mas_agent_h[0].mas_mon_h [MASTER MONITOR] INSIDE DATA PHASE OF MAS MON
# UVM_INFO ../mas_agent/ahb_master_monitor.sv(144) @ 675: uvm_test_top.env_h.ahb_uvc_h[0].mas_agent_h[0].mas_mon_h [MASTER MONITOR] THIS IS MONITOR DATA_PHASE SENDING TRANSECTION
# ------------------------------------------------------------------
# NAME           TYPE        SUB-TYPE     SIZE          VALUE
# ------------------------------------------------------------------
# HWRITE        integral      binary        1          0
# HADDR         integral      hex          32         00000000
# HWDATA        integral      hex          32         '{4228147897}
# hburst_type   hburst_enum   enum          3          SINGLE
# hsize_type    hsize_enum    enum          3          HALFWORD
# htrans_type   htrans_enum   enum          3          '{NONSEQ}
# HRDATA        integral      hex          32         00006ab9
# hresp_type    htrans_enum   enum          2          OKAY
# hready        hready        bit           1          1
# -------------------------------------------------------------------
# UVM_INFO ../env/ahb_scoreboard.sv(75) @ 675: uvm_test_top.env_h.ahb_sb_h [SCOREBOARD] THIS IS SCOREBOARD RECEIVED TRANSECTION FROM MASTER
# UVM_INFO ../mas_agent/ahb_master_monitor.sv(114) @ 675: uvm_test_top.env_h.ahb_uvc_h[0].mas_agent_h[0].mas_mon_h [MASTER MONITOR] INSIDE ADDR PHASE OF MAS MON
# UVM_INFO ../mas_agent/ahb_master_monitor.sv(122) @ 675: uvm_test_top.env_h.ahb_uvc_h[0].mas_agent_h[0].mas_mon_h [MASTER MONITOR] THIS IS MONITOR ADDR PHASE SENDING TRANSECTION
# ------------------------------------------------------------------
# NAME           TYPE        SUB-TYPE     SIZE          VALUE
# ------------------------------------------------------------------
# HWRITE        integral      binary        1          1
# HADDR         integral      hex          32         00000000
# HWDATA        integral      hex          32         '{4228147897}
# hburst_type   hburst_enum   enum          3          SINGLE
# hsize_type    hsize_enum    enum          3          WORD
# htrans_type   htrans_enum   enum          3          '{NONSEQ}
# HRDATA        integral      hex          32         00006ab9
# hresp_type    htrans_enum   enum          2          OKAY
# hready        hready        bit           1          1
# -------------------------------------------------------------------
# UVM_INFO ../mas_agent/ahb_master_checker.sv(126) @ 675: uvm_test_top.env_h.ahb_uvc_h[0].mas_agent_h[0].mas_chk_h [MASTER CHECKER] THIS IS CHECKER RECEIVED TRANSECTION
# ------------------------------------------------------------------
# NAME           TYPE        SUB-TYPE     SIZE          VALUE
# ------------------------------------------------------------------
# HWRITE        integral      binary        1          1
# HADDR         integral      hex          32         00000000
# HWDATA        integral      hex          32         '{4228147897}
# hburst_type   hburst_enum   enum          3          SINGLE
# hsize_type    hsize_enum    enum          3          WORD
# htrans_type   htrans_enum   enum          3          '{NONSEQ}
# HRDATA        integral      hex          32         00006ab9
# hresp_type    htrans_enum   enum          2          OKAY
# hready        hready        bit           1          1
# -------------------------------------------------------------------
# UVM_INFO ../mas_agent/ahb_master_checker.sv(145) @ 675: uvm_test_top.env_h.ahb_uvc_h[0].mas_agent_h[0].mas_chk_h [ahb_mas_checker] size of check trans q = 1 | res = 1
# UVM_INFO ../slv_agent/ahb_slave_driver.sv(62) @ 675: uvm_test_top.env_h.ahb_uvc_h[1].slv_agent_h[0].slv_drv_h [SLAVE_DRIVER] THIS IS BEFOR GET NEXT ITEM
# UVM_INFO ../slv_agent/ahb_slave_monitor.sv(161) @ 675: uvm_test_top.env_h.ahb_uvc_h[1].slv_agent_h[0].slv_mon_h [SLAVE MONITOR] THIS IS INSIDE DATA PHASE OF SLAVE MONITOR
# UVM_INFO ../slv_agent/ahb_slave_monitor.sv(167) @ 675: uvm_test_top.env_h.ahb_uvc_h[1].slv_agent_h[0].slv_mon_h [SLAVE MONITOR] THIS IS SLAVE SENDING TRANSECTION TO SCOREBOARD AND SEQUENCE
# ------------------------------------------------------------------
# NAME           TYPE        SUB-TYPE     SIZE          VALUE
# ------------------------------------------------------------------
# HWRITE       integral      binary        1          0
# HADDR        integral      hex          32         00000000
# HWDATA       integral      hex          32         4228147897
# hburst_type  hburst_enum   enum          3          SINGLE
# hsize_type   hsize_enum    enum          3          HALFWORD
# htrans_type  htrans_enum   enum          1          NONSEQ
# HRDATA       integral      hex          32         00006ab9
# hresp_type   hresp_enum    enum          1          OKAY
# HREADYOUT    integral      binary        1          0
# -------------------------------------------------------------------
# UVM_INFO ../env/ahb_scoreboard.sv(105) @ 675: uvm_test_top.env_h.ahb_sb_h [SCOREBOARD] THIS IS SCOREBOARD RECEIVED TRANSECTION FROM SLAVE
# UVM_INFO ../env/ahb_scoreboard.sv(113) @ 675: uvm_test_top.env_h.ahb_sb_h [PASS] slave addr in scoreboard - 0
# UVM_INFO ../env/ahb_scoreboard.sv(113) @ 675: uvm_test_top.env_h.ahb_sb_h [PASS] slave addr in scoreboard - 1
# UVM_INFO ../env/ahb_scoreboard.sv(122) @ 675: uvm_test_top.env_h.ahb_sb_h [PASS] write data from mas and read data from slv MATCHED!!
