# 
# 
# 
# 
# //  Questa Sim-64
# //  Version 10.4e win64 Apr  9 2016
# //
# //  Copyright 1991-2016 Mentor Graphics Corporation
# //  All Rights Reserved.
# //
# //  THIS WORK CONTAINS TRADE SECRET AND PROPRIETARY INFORMATION
# //  WHICH IS THE PROPERTY OF MENTOR GRAPHICS CORPORATION OR ITS
# //  LICENSORS AND IS SUBJECT TO LICENSE TERMS.
# //  THIS DOCUMENT CONTAINS TRADE SECRETS AND COMMERCIAL OR FINANCIAL
# //  INFORMATION THAT ARE PRIVILEGED, CONFIDENTIAL, AND EXEMPT FROM
# //  DISCLOSURE UNDER THE FREEDOM OF INFORMATION ACT, 5 U.S.C. SECTION 552.
# //  FURTHERMORE, THIS INFORMATION IS PROHIBITED FROM DISCLOSURE UNDER
# //  THE TRADE SECRETS ACT, 18 U.S.C. SECTION 1905.
# //
# vsim -novopt ahb_top "+UVM_TESTNAME=ahb_master_incr_test" "+UVM_VERBOSITY=" 
# Start time: 01:48:15 on Feb 16,2024
# ** Warning: (vsim-8891) All optimizations are turned off because the -novopt switch is in effect. This will cause your simulation to run very slowly. If you are using this switch to preserve visibility for Debug or PLI features please see the User's Manual section on Preserving Object Visibility with vopt.
# 
# Loading sv_std.std
# Loading mtiUvm.uvm_pkg
# Loading work.ahb_pkg
# Loading work.ahb_top_sv_unit
# Loading work.ahb_top
# Loading work.ahb_inf
# Loading work.ahb_dut_wrapper
# Loading work.ahb_dut
# Loading mtiUvm.questa_uvm_pkg
# Loading work.ahb_mas_inf
# Loading work.ahb_assertion
# Loading work.ahb_slv_inf
# ** Warning: (vsim-3015) ../HDL_interconnect/ahb_dut_wrapper.sv(21): [PCDPC] - Port size (4) does not match connection size (1) for port 'hmaster_s0'. The port definition is at: ../HDL_interconnect/ahb_dut.v(60).
#    Time: 0 ns  Iteration: 0  Instance: /ahb_top/DUT/dut File: ../HDL_interconnect/ahb_dut.v
# Loading C:/questasim64_10.4e/uvm-1.1d\win64\uvm_dpi.dll
add wave -r sim:/ahb_top/inf/*
run -all
# ----------------------------------------------------------------
# UVM-1.1d
# (C) 2007-2013 Mentor Graphics Corporation
# (C) 2007-2013 Cadence Design Systems, Inc.
# (C) 2006-2013 Synopsys, Inc.
# (C) 2011-2013 Cypress Semiconductor Corp.
# ----------------------------------------------------------------
# 
#   ***********       IMPORTANT RELEASE NOTES         ************
# 
#   You are using a version of the UVM library that has been compiled
#   with `UVM_NO_DEPRECATED undefined.
#   See http://www.eda.org/svdb/view.php?id=3313 for more details.
# 
#   You are using a version of the UVM library that has been compiled
#   with `UVM_OBJECT_MUST_HAVE_CONSTRUCTOR undefined.
#   See http://www.eda.org/svdb/view.php?id=3770 for more details.
# 
#       (Specify +UVM_NO_RELNOTES to turn off this notice)
# 
# UVM_WARNING @ 0: reporter [ILLVERB] Illegal verbosity value, using default of UVM_MEDIUM.
# UVM_INFO verilog_src/questa_uvm_pkg-1.2/src/questa_uvm_pkg.sv(215) @ 0: reporter [Questa UVM] QUESTA_UVM-1.2.3
# UVM_INFO verilog_src/questa_uvm_pkg-1.2/src/questa_uvm_pkg.sv(217) @ 0: reporter [Questa UVM]  questa_uvm::init(+struct)
# UVM_INFO @ 0: reporter [RNTST] Running test ahb_master_incr_test...
# UVM_INFO ../test/ahb_master_incr_test.sv(50) @ 0: uvm_test_top [build_phase] Entered...
# ----------------------------------------------------------------------
# Name                 Type                             Size  Value     
# ----------------------------------------------------------------------
# env_cfg              ahb_env_config                   -     @513      
#   has_scoreboard     integral                         1     'h0       
#   has_coverage       integral                         1     'h0       
#   no_of_uvc          integral                         32    'h2       
#   uvc_cfg            da(object)                       2     -         
#     [0]              ahb_uvc_config                   -     @514      
#       no_of_masters  integral                         32    'h1       
#       no_of_slaves   integral                         32    'h0       
#       master_cfg     da(object)                       1     -         
#         [0]          ahb_mas_agent_cfg                -     @516      
#           is_active  uvm_active_passive_enum          1     UVM_ACTIVE
#           is_enable  uvm_checker_enable_disable_enum  1     ENABLE    
#       slave_cfg      da(object)                       0     -         
#     [1]              ahb_uvc_config                   -     @515      
#       no_of_masters  integral                         32    'h0       
#       no_of_slaves   integral                         32    'h1       
#       master_cfg     da(object)                       0     -         
#       slave_cfg      da(object)                       1     -         
#         [0]          ahb_slv_agent_cfg                -     @517      
#           is_active  uvm_active_passive_enum          1     UVM_ACTIVE
#           is_enable  uvm_checker_enable_disable_enum  1     DISABLE   
# ----------------------------------------------------------------------
# UVM_INFO ../test/ahb_master_incr_test.sv(63) @ 0: uvm_test_top [build_phase] Exiting...
# UVM_INFO @ 0: reporter [UVMTOP] UVM testbench topology:
# ----------------------------------------------------------------------
# Name                           Type                        Size  Value
# ----------------------------------------------------------------------
# uvm_test_top                   ahb_master_incr_test        -     @504 
#   env_h                        ahb_env                     -     @518 
#     ahb_uvc_h[0]               ahb_uvc                     -     @541 
#       mas_agent_h[0]           uvm_agent                   -     @563 
#         mas_chk_h              ahb_mas_checker             -     @760 
#           mas_ai_ch            uvm_analysis_imp            -     @768 
#         mas_drv_h              uvm_driver #(REQ,RSP)       -     @699 
#           rsp_port             uvm_analysis_port           -     @716 
#           seq_item_port        uvm_seq_item_pull_port      -     @707 
#         mas_mon_h              uvm_monitor                 -     @725 
#           mas_ap_ch            uvm_analysis_port           -     @742 
#           mas_ap_mon           uvm_analysis_port           -     @733 
#           mas_mon_cc           uvm_analysis_port           -     @751 
#         mas_seqr_h             uvm_sequencer               -     @576 
#           rsp_export           uvm_analysis_export         -     @584 
#           seq_item_export      uvm_seq_item_pull_imp       -     @690 
#           arbitration_queue    array                       0     -    
#           lock_queue           array                       0     -    
#           num_last_reqs        integral                    32    'd1  
#           num_last_rsps        integral                    32    'd1  
#     ahb_uvc_h[1]               ahb_uvc                     -     @549 
#       slv_agent_h[0]           uvm_agent                   -     @790 
#         slv_drv_h              uvm_driver #(REQ,RSP)       -     @988 
#           rsp_port             uvm_analysis_port           -     @1005
#           seq_item_port        uvm_seq_item_pull_port      -     @996 
#         slv_mon_h              uvm_monitor                 -     @1014
#           slv_ap_mon           uvm_analysis_port           -     @1022
#           slv_mon_cc           uvm_analysis_port           -     @1040
#           slv_mon_sb           uvm_analysis_port           -     @1031
#         slv_seqr_h             uvm_sequencer               -     @803 
#           item_collected_fifo  uvm_tlm_analysis_fifo #(T)  -     @935 
#             analysis_export    uvm_analysis_imp            -     @979 
#             get_ap             uvm_analysis_port           -     @970 
#             get_peek_export    uvm_get_peek_imp            -     @952 
#             put_ap             uvm_analysis_port           -     @961 
#             put_export         uvm_put_imp                 -     @943 
#           item_export          uvm_analysis_export         -     @926 
#           rsp_export           uvm_analysis_export         -     @811 
#           seq_item_export      uvm_seq_item_pull_imp       -     @917 
#           arbitration_queue    array                       0     -    
#           lock_queue           array                       0     -    
#           num_last_reqs        integral                    32    'd1  
#           num_last_rsps        integral                    32    'd1  
# ----------------------------------------------------------------------
# 
# UVM_INFO ../slv_agent/ahb_slave_monitor.sv(104) @ 0: uvm_test_top.env_h.ahb_uvc_h[1].slv_agent_h[0].slv_mon_h [SLAVE MONITOR] THIS IS INSIDE SLAVE MONITOR RESET
# UVM_INFO ../slv_agent/ahb_slave_driver.sv(161) @ 0: uvm_test_top.env_h.ahb_uvc_h[1].slv_agent_h[0].slv_drv_h [SLAVE DRIVER] SLAVE SIDE RESET
# UVM_INFO ../mas_agent/ahb_master_monitor.sv(100) @ 0: uvm_test_top.env_h.ahb_uvc_h[0].mas_agent_h[0].mas_mon_h [RESET] THIS IS MASTER MONITOR RESET
# UVM_INFO ../mas_agent/ahb_master_driver.sv(134) @ 0: uvm_test_top.env_h.ahb_uvc_h[0].mas_agent_h[0].mas_drv_h [MASTER DRIVER] THIS IS MASTER SIDE RESET
# UVM_INFO ../seq/ahb_master_incr_sequence.sv(47) @ 0: uvm_test_top.env_h.ahb_uvc_h[0].mas_agent_h[0].mas_seqr_h@@ahb_master_incr_sequence [body] Entered ...
# UVM_INFO ../seq/ahb_master_incr_sequence.sv(50) @ 0: uvm_test_top.env_h.ahb_uvc_h[0].mas_agent_h[0].mas_seqr_h@@ahb_master_incr_sequence [BODY] GET FAILED
# UVM_INFO ../seq/ahb_master_incr_sequence.sv(52) @ 0: uvm_test_top.env_h.ahb_uvc_h[0].mas_agent_h[0].mas_seqr_h@@ahb_master_incr_sequence [body] sequence_length is 20
# UVM_INFO ../slv_agent/ahb_slave_driver.sv(62) @ 275: uvm_test_top.env_h.ahb_uvc_h[1].slv_agent_h[0].slv_drv_h [SLAVE_DRIVER] THIS IS BEFOR GET NEXT ITEM
# UVM_INFO ../mas_agent/ahb_master_driver.sv(107) @ 275: uvm_test_top.env_h.ahb_uvc_h[0].mas_agent_h[0].mas_drv_h [MASTER DRIVER] THIS IS INSIDE MASTER DRIVER
# ------------------------------------------------------------------
# NAME           TYPE        SUB-TYPE     SIZE          VALUE
# ------------------------------------------------------------------
# HWRITE        integral      binary        1          1
# HADDR         integral      hex          32         00000001
# HWDATA        integral      hex          32         '{3143978277}
# hburst_type   hburst_enum   enum          3          INCR
# hsize_type    hsize_enum    enum          3          BYTE
# htrans_type   htrans_enum   enum          3          '{NONSEQ}
# HRDATA        integral      hex          32         00000000
# hresp_type    htrans_enum   enum          2          OKAY
# hready        hready        bit           1          0
# -------------------------------------------------------------------
# UVM_INFO ../mas_agent/ahb_master_driver.sv(497) @ 325: uvm_test_top.env_h.ahb_uvc_h[0].mas_agent_h[0].mas_drv_h [uvm_driver #(REQ,RSP)] DATA PHASE!!size of queue=========='{}
# UVM_INFO ../mas_agent/ahb_master_driver.sv(504) @ 325: uvm_test_top.env_h.ahb_uvc_h[0].mas_agent_h[0].mas_drv_h [uvm_driver #(REQ,RSP)] DATA PHASE!!going to be end!!
# UVM_INFO ../mas_agent/ahb_master_driver.sv(421) @ 325: uvm_test_top.env_h.ahb_uvc_h[0].mas_agent_h[0].mas_drv_h [uvm_driver #(REQ,RSP)] ADDR PHASE!!going to be end!!
# UVM_INFO ../mas_agent/ahb_master_monitor.sv(114) @ 325: uvm_test_top.env_h.ahb_uvc_h[0].mas_agent_h[0].mas_mon_h [MASTER MONITOR] INSIDE ADDR PHASE OF MAS MON
# UVM_INFO ../mas_agent/ahb_master_monitor.sv(122) @ 325: uvm_test_top.env_h.ahb_uvc_h[0].mas_agent_h[0].mas_mon_h [MASTER MONITOR] THIS IS MONITOR ADDR PHASE SENDING TRANSECTION
# ------------------------------------------------------------------
# NAME           TYPE        SUB-TYPE     SIZE          VALUE
# ------------------------------------------------------------------
# HWRITE        integral      binary        1          1
# HADDR         integral      hex          32         00000001
# HWDATA        integral      hex          32         '{}
# hburst_type   hburst_enum   enum          3          INCR
# hsize_type    hsize_enum    enum          3          BYTE
# htrans_type   htrans_enum   enum          3          '{NONSEQ}
# HRDATA        integral      hex          32         00000000
# hresp_type    htrans_enum   enum          2          OKAY
# hready        hready        bit           1          1
# -------------------------------------------------------------------
# UVM_INFO ../mas_agent/ahb_master_checker.sv(126) @ 325: uvm_test_top.env_h.ahb_uvc_h[0].mas_agent_h[0].mas_chk_h [MASTER CHECKER] THIS IS CHECKER RECEIVED TRANSECTION
# ------------------------------------------------------------------
# NAME           TYPE        SUB-TYPE     SIZE          VALUE
# ------------------------------------------------------------------
# HWRITE        integral      binary        1          1
# HADDR         integral      hex          32         00000001
# HWDATA        integral      hex          32         '{}
# hburst_type   hburst_enum   enum          3          INCR
# hsize_type    hsize_enum    enum          3          BYTE
# htrans_type   htrans_enum   enum          3          '{NONSEQ}
# HRDATA        integral      hex          32         00000000
# hresp_type    htrans_enum   enum          2          OKAY
# hready        hready        bit           1          1
# -------------------------------------------------------------------
# UVM_INFO ../mas_agent/ahb_master_checker.sv(145) @ 325: uvm_test_top.env_h.ahb_uvc_h[0].mas_agent_h[0].mas_chk_h [ahb_mas_checker] size of check trans q = 1 | res = 1
# UVM_INFO ../slv_agent/ahb_slave_monitor.sv(121) @ 325: uvm_test_top.env_h.ahb_uvc_h[1].slv_agent_h[0].slv_mon_h [SLAVE MONITOR] THIS IS INSIDE ADDR PHASE OF SLAVE MONITOR
# UVM_INFO ../slv_agent/ahb_slave_monitor.sv(129) @ 325: uvm_test_top.env_h.ahb_uvc_h[1].slv_agent_h[0].slv_mon_h [SLAVE MONITOR] THIS IS SLAVE SENDING TRANSECTION TO SEQUENCE
# ------------------------------------------------------------------
# NAME           TYPE        SUB-TYPE     SIZE          VALUE
# ------------------------------------------------------------------
# HWRITE       integral      binary        1          1
# HADDR        integral      hex          32         00000001
# HWDATA       integral      hex          32         0
# hburst_type  hburst_enum   enum          3          INCR
# hsize_type   hsize_enum    enum          3          BYTE
# htrans_type  htrans_enum   enum          1          NONSEQ
# HRDATA       integral      hex          32         00000000
# hresp_type   hresp_enum    enum          1          OKAY
# HREADYOUT    integral      binary        1          0
# -------------------------------------------------------------------
# UVM_INFO ../seq/ahb_slave_mem_response_sequence.sv(53) @ 325: uvm_test_top.env_h.ahb_uvc_h[1].slv_agent_h[0].slv_seqr_h@@<unknown> [SLAVE SEQUENCE] This Is Slave Sequence Collected Transaction
# ------------------------------------------------------------------
# NAME           TYPE        SUB-TYPE     SIZE          VALUE
# ------------------------------------------------------------------
# HWRITE       integral      binary        1          1
# HADDR        integral      hex          32         00000001
# HWDATA       integral      hex          32         0
# hburst_type  hburst_enum   enum          3          INCR
# hsize_type   hsize_enum    enum          3          BYTE
# htrans_type  htrans_enum   enum          1          NONSEQ
# HRDATA       integral      hex          32         00000000
# hresp_type   hresp_enum    enum          1          OKAY
# HREADYOUT    integral      binary        1          0
# -------------------------------------------------------------------
# UVM_INFO ../slv_agent/ahb_slave_driver.sv(89) @ 325: uvm_test_top.env_h.ahb_uvc_h[1].slv_agent_h[0].slv_drv_h [SLAVE DRIVER] THIS IS INSIDE SLAVE DRIVER
# ------------------------------------------------------------------
# NAME           TYPE        SUB-TYPE     SIZE          VALUE
# ------------------------------------------------------------------
# HWRITE       integral      binary        1          1
# HADDR        integral      hex          32         00000001
# HWDATA       integral      hex          32         0
# hburst_type  hburst_enum   enum          3          INCR
# hsize_type   hsize_enum    enum          3          BYTE
# htrans_type  htrans_enum   enum          1          NONSEQ
# HRDATA       integral      hex          32         00000000
# hresp_type   hresp_enum    enum          1          OKAY
# HREADYOUT    integral      binary        1          0
# -------------------------------------------------------------------
# UVM_INFO ../slv_agent/ahb_slave_driver.sv(121) @ 325: uvm_test_top.env_h.ahb_uvc_h[1].slv_agent_h[0].slv_drv_h [SLAVE DRIVER] THIS IS INSIDE READ OKAY RESP
# UVM_INFO ../mas_agent/ahb_master_driver.sv(107) @ 325: uvm_test_top.env_h.ahb_uvc_h[0].mas_agent_h[0].mas_drv_h [MASTER DRIVER] THIS IS INSIDE MASTER DRIVER
# ------------------------------------------------------------------
# NAME           TYPE        SUB-TYPE     SIZE          VALUE
# ------------------------------------------------------------------
# HWRITE        integral      binary        1          0
# HADDR         integral      hex          32         00000001
# HWDATA        integral      hex          32         '{2590636674}
# hburst_type   hburst_enum   enum          3          INCR
# hsize_type    hsize_enum    enum          3          BYTE
# htrans_type   htrans_enum   enum          3          '{NONSEQ}
# HRDATA        integral      hex          32         00000000
# hresp_type    htrans_enum   enum          2          OKAY
# hready        hready        bit           1          0
# -------------------------------------------------------------------
# UVM_INFO ../mas_agent/ahb_master_monitor.sv(138) @ 375: uvm_test_top.env_h.ahb_uvc_h[0].mas_agent_h[0].mas_mon_h [MASTER MONITOR] INSIDE DATA PHASE OF MAS MON
# UVM_INFO ../mas_agent/ahb_master_monitor.sv(144) @ 375: uvm_test_top.env_h.ahb_uvc_h[0].mas_agent_h[0].mas_mon_h [MASTER MONITOR] THIS IS MONITOR DATA_PHASE SENDING TRANSECTION
# ------------------------------------------------------------------
# NAME           TYPE        SUB-TYPE     SIZE          VALUE
# ------------------------------------------------------------------
# HWRITE        integral      binary        1          1
# HADDR         integral      hex          32         00000001
# HWDATA        integral      hex          32         '{3143978277}
# hburst_type   hburst_enum   enum          3          INCR
# hsize_type    hsize_enum    enum          3          BYTE
# htrans_type   htrans_enum   enum          3          '{NONSEQ}
# HRDATA        integral      hex          32         00000000
# hresp_type    htrans_enum   enum          2          OKAY
# hready        hready        bit           1          1
# -------------------------------------------------------------------
# UVM_INFO ../mas_agent/ahb_master_monitor.sv(114) @ 375: uvm_test_top.env_h.ahb_uvc_h[0].mas_agent_h[0].mas_mon_h [MASTER MONITOR] INSIDE ADDR PHASE OF MAS MON
# UVM_INFO ../mas_agent/ahb_master_monitor.sv(122) @ 375: uvm_test_top.env_h.ahb_uvc_h[0].mas_agent_h[0].mas_mon_h [MASTER MONITOR] THIS IS MONITOR ADDR PHASE SENDING TRANSECTION
# ------------------------------------------------------------------
# NAME           TYPE        SUB-TYPE     SIZE          VALUE
# ------------------------------------------------------------------
# HWRITE        integral      binary        1          0
# HADDR         integral      hex          32         00000001
# HWDATA        integral      hex          32         '{3143978277}
# hburst_type   hburst_enum   enum          3          INCR
# hsize_type    hsize_enum    enum          3          BYTE
# htrans_type   htrans_enum   enum          3          '{NONSEQ}
# HRDATA        integral      hex          32         00000000
# hresp_type    htrans_enum   enum          2          OKAY
# hready        hready        bit           1          0
# -------------------------------------------------------------------
# UVM_INFO ../mas_agent/ahb_master_checker.sv(126) @ 375: uvm_test_top.env_h.ahb_uvc_h[0].mas_agent_h[0].mas_chk_h [MASTER CHECKER] THIS IS CHECKER RECEIVED TRANSECTION
# ------------------------------------------------------------------
# NAME           TYPE        SUB-TYPE     SIZE          VALUE
# ------------------------------------------------------------------
# HWRITE        integral      binary        1          0
# HADDR         integral      hex          32         00000001
# HWDATA        integral      hex          32         '{3143978277}
# hburst_type   hburst_enum   enum          3          INCR
# hsize_type    hsize_enum    enum          3          BYTE
# htrans_type   htrans_enum   enum          3          '{NONSEQ}
# HRDATA        integral      hex          32         00000000
# hresp_type    htrans_enum   enum          2          OKAY
# hready        hready        bit           1          0
# -------------------------------------------------------------------
# UVM_INFO ../mas_agent/ahb_master_checker.sv(145) @ 375: uvm_test_top.env_h.ahb_uvc_h[0].mas_agent_h[0].mas_chk_h [ahb_mas_checker] size of check trans q = 2 | res = 1
# UVM_INFO ../mas_agent/ahb_master_driver.sv(497) @ 425: uvm_test_top.env_h.ahb_uvc_h[0].mas_agent_h[0].mas_drv_h [uvm_driver #(REQ,RSP)] DATA PHASE!!size of queue=========='{}
# UVM_INFO ../mas_agent/ahb_master_driver.sv(504) @ 425: uvm_test_top.env_h.ahb_uvc_h[0].mas_agent_h[0].mas_drv_h [uvm_driver #(REQ,RSP)] DATA PHASE!!going to be end!!
# UVM_INFO ../mas_agent/ahb_master_driver.sv(421) @ 425: uvm_test_top.env_h.ahb_uvc_h[0].mas_agent_h[0].mas_drv_h [uvm_driver #(REQ,RSP)] ADDR PHASE!!going to be end!!
# UVM_INFO ../mas_agent/ahb_master_monitor.sv(138) @ 425: uvm_test_top.env_h.ahb_uvc_h[0].mas_agent_h[0].mas_mon_h [MASTER MONITOR] INSIDE DATA PHASE OF MAS MON
# UVM_INFO ../mas_agent/ahb_master_monitor.sv(144) @ 425: uvm_test_top.env_h.ahb_uvc_h[0].mas_agent_h[0].mas_mon_h [MASTER MONITOR] THIS IS MONITOR DATA_PHASE SENDING TRANSECTION
# ------------------------------------------------------------------
# NAME           TYPE        SUB-TYPE     SIZE          VALUE
# ------------------------------------------------------------------
# HWRITE        integral      binary        1          0
# HADDR         integral      hex          32         00000001
# HWDATA        integral      hex          32         '{3143978277}
# hburst_type   hburst_enum   enum          3          INCR
# hsize_type    hsize_enum    enum          3          BYTE
# htrans_type   htrans_enum   enum          3          '{NONSEQ}
# HRDATA        integral      hex          32         00000000
# hresp_type    htrans_enum   enum          2          OKAY
# hready        hready        bit           1          0
# -------------------------------------------------------------------
# UVM_INFO ../mas_agent/ahb_master_monitor.sv(114) @ 425: uvm_test_top.env_h.ahb_uvc_h[0].mas_agent_h[0].mas_mon_h [MASTER MONITOR] INSIDE ADDR PHASE OF MAS MON
# UVM_INFO ../mas_agent/ahb_master_monitor.sv(122) @ 425: uvm_test_top.env_h.ahb_uvc_h[0].mas_agent_h[0].mas_mon_h [MASTER MONITOR] THIS IS MONITOR ADDR PHASE SENDING TRANSECTION
# ------------------------------------------------------------------
# NAME           TYPE        SUB-TYPE     SIZE          VALUE
# ------------------------------------------------------------------
# HWRITE        integral      binary        1          0
# HADDR         integral      hex          32         00000001
# HWDATA        integral      hex          32         '{3143978277}
# hburst_type   hburst_enum   enum          3          INCR
# hsize_type    hsize_enum    enum          3          BYTE
# htrans_type   htrans_enum   enum          3          '{NONSEQ}
# HRDATA        integral      hex          32         00000000
# hresp_type    htrans_enum   enum          2          OKAY
# hready        hready        bit           1          1
# -------------------------------------------------------------------
# UVM_INFO ../mas_agent/ahb_master_checker.sv(126) @ 425: uvm_test_top.env_h.ahb_uvc_h[0].mas_agent_h[0].mas_chk_h [MASTER CHECKER] THIS IS CHECKER RECEIVED TRANSECTION
# ------------------------------------------------------------------
# NAME           TYPE        SUB-TYPE     SIZE          VALUE
# ------------------------------------------------------------------
# HWRITE        integral      binary        1          0
# HADDR         integral      hex          32         00000001
# HWDATA        integral      hex          32         '{3143978277}
# hburst_type   hburst_enum   enum          3          INCR
# hsize_type    hsize_enum    enum          3          BYTE
# htrans_type   htrans_enum   enum          3          '{NONSEQ}
# HRDATA        integral      hex          32         00000000
# hresp_type    htrans_enum   enum          2          OKAY
# hready        hready        bit           1          1
# -------------------------------------------------------------------
# UVM_INFO ../mas_agent/ahb_master_checker.sv(145) @ 425: uvm_test_top.env_h.ahb_uvc_h[0].mas_agent_h[0].mas_chk_h [ahb_mas_checker] size of check trans q = 2 | res = 1
# UVM_INFO ../slv_agent/ahb_slave_driver.sv(62) @ 425: uvm_test_top.env_h.ahb_uvc_h[1].slv_agent_h[0].slv_drv_h [SLAVE_DRIVER] THIS IS BEFOR GET NEXT ITEM
# UVM_INFO ../slv_agent/ahb_slave_monitor.sv(161) @ 425: uvm_test_top.env_h.ahb_uvc_h[1].slv_agent_h[0].slv_mon_h [SLAVE MONITOR] THIS IS INSIDE DATA PHASE OF SLAVE MONITOR
# UVM_INFO ../slv_agent/ahb_slave_monitor.sv(167) @ 425: uvm_test_top.env_h.ahb_uvc_h[1].slv_agent_h[0].slv_mon_h [SLAVE MONITOR] THIS IS SLAVE SENDING TRANSECTION TO SCOREBOARD AND SEQUENCE
# ------------------------------------------------------------------
# NAME           TYPE        SUB-TYPE     SIZE          VALUE
# ------------------------------------------------------------------
# HWRITE       integral      binary        1          1
# HADDR        integral      hex          32         00000001
# HWDATA       integral      hex          32         3143978277
# hburst_type  hburst_enum   enum          3          INCR
# hsize_type   hsize_enum    enum          3          BYTE
# htrans_type  htrans_enum   enum          1          NONSEQ
# HRDATA       integral      hex          32         00000000
# hresp_type   hresp_enum    enum          1          OKAY
# HREADYOUT    integral      binary        1          0
# -------------------------------------------------------------------
# UVM_INFO ../slv_agent/ahb_slave_monitor.sv(121) @ 425: uvm_test_top.env_h.ahb_uvc_h[1].slv_agent_h[0].slv_mon_h [SLAVE MONITOR] THIS IS INSIDE ADDR PHASE OF SLAVE MONITOR
# UVM_INFO ../slv_agent/ahb_slave_monitor.sv(129) @ 425: uvm_test_top.env_h.ahb_uvc_h[1].slv_agent_h[0].slv_mon_h [SLAVE MONITOR] THIS IS SLAVE SENDING TRANSECTION TO SEQUENCE
# ------------------------------------------------------------------
# NAME           TYPE        SUB-TYPE     SIZE          VALUE
# ------------------------------------------------------------------
# HWRITE       integral      binary        1          0
# HADDR        integral      hex          32         00000001
# HWDATA       integral      hex          32         3143978277
# hburst_type  hburst_enum   enum          3          INCR
# hsize_type   hsize_enum    enum          3          BYTE
# htrans_type  htrans_enum   enum          1          NONSEQ
# HRDATA       integral      hex          32         00000000
# hresp_type   hresp_enum    enum          1          OKAY
# HREADYOUT    integral      binary        1          0
# -------------------------------------------------------------------
# UVM_INFO ../seq/ahb_slave_mem_response_sequence.sv(53) @ 425: uvm_test_top.env_h.ahb_uvc_h[1].slv_agent_h[0].slv_seqr_h@@<unknown> [SLAVE SEQUENCE] This Is Slave Sequence Collected Transaction
# ------------------------------------------------------------------
# NAME           TYPE        SUB-TYPE     SIZE          VALUE
# ------------------------------------------------------------------
# HWRITE       integral      binary        1          0
# HADDR        integral      hex          32         00000001
# HWDATA       integral      hex          32         3143978277
# hburst_type  hburst_enum   enum          3          INCR
# hsize_type   hsize_enum    enum          3          BYTE
# htrans_type  htrans_enum   enum          1          NONSEQ
# HRDATA       integral      hex          32         00000000
# hresp_type   hresp_enum    enum          1          OKAY
# HREADYOUT    integral      binary        1          0
# -------------------------------------------------------------------
# UVM_INFO ../seq/ahb_base_slave_sequence.sv(118) @ 425: uvm_test_top.env_h.ahb_uvc_h[1].slv_agent_h[0].slv_seqr_h@@<unknown> [SLAVE SEQUENCE] This Is Inside Write Transfer
# UVM_INFO ../seq/ahb_base_slave_sequence.sv(129) @ 425: uvm_test_top.env_h.ahb_uvc_h[1].slv_agent_h[0].slv_seqr_h@@<unknown> [SLAVE SEQUENCE] This Is Slave Sending Transfer To Sequencer
# ------------------------------------------------------------------
# NAME           TYPE        SUB-TYPE     SIZE          VALUE
# ------------------------------------------------------------------
# HWRITE       integral      binary        1          0
# HADDR        integral      hex          32         00000001
# HWDATA       integral      hex          32         3143978277
# hburst_type  hburst_enum   enum          3          INCR
# hsize_type   hsize_enum    enum          3          BYTE
# htrans_type  htrans_enum   enum          1          NONSEQ
# HRDATA       integral      hex          32         00000000
# hresp_type   hresp_enum    enum          1          OKAY
# HREADYOUT    integral      binary        1          0
# -------------------------------------------------------------------
# UVM_INFO ../seq/ahb_base_slave_sequence.sv(71) @ 425: uvm_test_top.env_h.ahb_uvc_h[1].slv_agent_h[0].slv_seqr_h@@<unknown> [SLAVE SEQUENCE] This Is Read Transfer
# UVM_INFO ../seq/ahb_base_slave_sequence.sv(83) @ 425: uvm_test_top.env_h.ahb_uvc_h[1].slv_agent_h[0].slv_seqr_h@@<unknown> [SLAVE SEQUENCE] This Slave Sending Transaction To The Sequencer
# ------------------------------------------------------------------
# NAME           TYPE        SUB-TYPE     SIZE          VALUE
# ------------------------------------------------------------------
# HWRITE       integral      binary        1          0
# HADDR        integral      hex          32         00000001
# HWDATA       integral      hex          32         3143978277
# hburst_type  hburst_enum   enum          3          INCR
# hsize_type   hsize_enum    enum          3          BYTE
# htrans_type  htrans_enum   enum          1          NONSEQ
# HRDATA       integral      hex          32         00004d00
# hresp_type   hresp_enum    enum          1          OKAY
# HREADYOUT    integral      binary        1          0
# -------------------------------------------------------------------
# UVM_INFO ../slv_agent/ahb_slave_driver.sv(89) @ 425: uvm_test_top.env_h.ahb_uvc_h[1].slv_agent_h[0].slv_drv_h [SLAVE DRIVER] THIS IS INSIDE SLAVE DRIVER
# ------------------------------------------------------------------
# NAME           TYPE        SUB-TYPE     SIZE          VALUE
# ------------------------------------------------------------------
# HWRITE       integral      binary        1          0
# HADDR        integral      hex          32         00000001
# HWDATA       integral      hex          32         3143978277
# hburst_type  hburst_enum   enum          3          INCR
# hsize_type   hsize_enum    enum          3          BYTE
# htrans_type  htrans_enum   enum          1          NONSEQ
# HRDATA       integral      hex          32         00004d00
# hresp_type   hresp_enum    enum          1          OKAY
# HREADYOUT    integral      binary        1          1
# -------------------------------------------------------------------
# UVM_INFO ../slv_agent/ahb_slave_driver.sv(121) @ 425: uvm_test_top.env_h.ahb_uvc_h[1].slv_agent_h[0].slv_drv_h [SLAVE DRIVER] THIS IS INSIDE READ OKAY RESP
# UVM_INFO ../mas_agent/ahb_master_driver.sv(107) @ 425: uvm_test_top.env_h.ahb_uvc_h[0].mas_agent_h[0].mas_drv_h [MASTER DRIVER] THIS IS INSIDE MASTER DRIVER
# ------------------------------------------------------------------
# NAME           TYPE        SUB-TYPE     SIZE          VALUE
# ------------------------------------------------------------------
# HWRITE        integral      binary        1          1
# HADDR         integral      hex          32         00000001
# HWDATA        integral      hex          32         '{3026240323}
# hburst_type   hburst_enum   enum          3          INCR
# hsize_type    hsize_enum    enum          3          BYTE
# htrans_type   htrans_enum   enum          3          '{NONSEQ}
# HRDATA        integral      hex          32         00000000
# hresp_type    htrans_enum   enum          2          OKAY
# hready        hready        bit           1          0
# -------------------------------------------------------------------
# UVM_INFO ../mas_agent/ahb_master_driver.sv(497) @ 475: uvm_test_top.env_h.ahb_uvc_h[0].mas_agent_h[0].mas_drv_h [uvm_driver #(REQ,RSP)] DATA PHASE!!size of queue=========='{}
# UVM_INFO ../mas_agent/ahb_master_driver.sv(504) @ 475: uvm_test_top.env_h.ahb_uvc_h[0].mas_agent_h[0].mas_drv_h [uvm_driver #(REQ,RSP)] DATA PHASE!!going to be end!!
# UVM_INFO ../mas_agent/ahb_master_driver.sv(421) @ 475: uvm_test_top.env_h.ahb_uvc_h[0].mas_agent_h[0].mas_drv_h [uvm_driver #(REQ,RSP)] ADDR PHASE!!going to be end!!
# UVM_INFO ../mas_agent/ahb_master_monitor.sv(138) @ 475: uvm_test_top.env_h.ahb_uvc_h[0].mas_agent_h[0].mas_mon_h [MASTER MONITOR] INSIDE DATA PHASE OF MAS MON
# UVM_INFO ../mas_agent/ahb_master_monitor.sv(144) @ 475: uvm_test_top.env_h.ahb_uvc_h[0].mas_agent_h[0].mas_mon_h [MASTER MONITOR] THIS IS MONITOR DATA_PHASE SENDING TRANSECTION
# ------------------------------------------------------------------
# NAME           TYPE        SUB-TYPE     SIZE          VALUE
# ------------------------------------------------------------------
# HWRITE        integral      binary        1          0
# HADDR         integral      hex          32         00000001
# HWDATA        integral      hex          32         '{3143978277}
# hburst_type   hburst_enum   enum          3          INCR
# hsize_type    hsize_enum    enum          3          BYTE
# htrans_type   htrans_enum   enum          3          '{NONSEQ}
# HRDATA        integral      hex          32         00004d00
# hresp_type    htrans_enum   enum          2          OKAY
# hready        hready        bit           1          1
# -------------------------------------------------------------------
# UVM_INFO ../mas_agent/ahb_master_monitor.sv(114) @ 475: uvm_test_top.env_h.ahb_uvc_h[0].mas_agent_h[0].mas_mon_h [MASTER MONITOR] INSIDE ADDR PHASE OF MAS MON
# UVM_INFO ../mas_agent/ahb_master_monitor.sv(122) @ 475: uvm_test_top.env_h.ahb_uvc_h[0].mas_agent_h[0].mas_mon_h [MASTER MONITOR] THIS IS MONITOR ADDR PHASE SENDING TRANSECTION
# ------------------------------------------------------------------
# NAME           TYPE        SUB-TYPE     SIZE          VALUE
# ------------------------------------------------------------------
# HWRITE        integral      binary        1          1
# HADDR         integral      hex          32         00000001
# HWDATA        integral      hex          32         '{3143978277}
# hburst_type   hburst_enum   enum          3          INCR
# hsize_type    hsize_enum    enum          3          BYTE
# htrans_type   htrans_enum   enum          3          '{NONSEQ}
# HRDATA        integral      hex          32         00004d00
# hresp_type    htrans_enum   enum          2          OKAY
# hready        hready        bit           1          1
# -------------------------------------------------------------------
# UVM_INFO ../mas_agent/ahb_master_checker.sv(126) @ 475: uvm_test_top.env_h.ahb_uvc_h[0].mas_agent_h[0].mas_chk_h [MASTER CHECKER] THIS IS CHECKER RECEIVED TRANSECTION
# ------------------------------------------------------------------
# NAME           TYPE        SUB-TYPE     SIZE          VALUE
# ------------------------------------------------------------------
# HWRITE        integral      binary        1          1
# HADDR         integral      hex          32         00000001
# HWDATA        integral      hex          32         '{3143978277}
# hburst_type   hburst_enum   enum          3          INCR
# hsize_type    hsize_enum    enum          3          BYTE
# htrans_type   htrans_enum   enum          3          '{NONSEQ}
# HRDATA        integral      hex          32         00004d00
# hresp_type    htrans_enum   enum          2          OKAY
# hready        hready        bit           1          1
# -------------------------------------------------------------------
# UVM_INFO ../mas_agent/ahb_master_checker.sv(145) @ 475: uvm_test_top.env_h.ahb_uvc_h[0].mas_agent_h[0].mas_chk_h [ahb_mas_checker] size of check trans q = 2 | res = 2
# UVM_INFO ../slv_agent/ahb_slave_driver.sv(62) @ 475: uvm_test_top.env_h.ahb_uvc_h[1].slv_agent_h[0].slv_drv_h [SLAVE_DRIVER] THIS IS BEFOR GET NEXT ITEM
# UVM_INFO ../slv_agent/ahb_slave_monitor.sv(161) @ 475: uvm_test_top.env_h.ahb_uvc_h[1].slv_agent_h[0].slv_mon_h [SLAVE MONITOR] THIS IS INSIDE DATA PHASE OF SLAVE MONITOR
# UVM_INFO ../slv_agent/ahb_slave_monitor.sv(167) @ 475: uvm_test_top.env_h.ahb_uvc_h[1].slv_agent_h[0].slv_mon_h [SLAVE MONITOR] THIS IS SLAVE SENDING TRANSECTION TO SCOREBOARD AND SEQUENCE
# ------------------------------------------------------------------
# NAME           TYPE        SUB-TYPE     SIZE          VALUE
# ------------------------------------------------------------------
# HWRITE       integral      binary        1          0
# HADDR        integral      hex          32         00000001
# HWDATA       integral      hex          32         3143978277
# hburst_type  hburst_enum   enum          3          INCR
# hsize_type   hsize_enum    enum          3          BYTE
# htrans_type  htrans_enum   enum          1          NONSEQ
# HRDATA       integral      hex          32         00004d00
# hresp_type   hresp_enum    enum          1          OKAY
# HREADYOUT    integral      binary        1          0
# -------------------------------------------------------------------
# UVM_INFO ../slv_agent/ahb_slave_monitor.sv(121) @ 475: uvm_test_top.env_h.ahb_uvc_h[1].slv_agent_h[0].slv_mon_h [SLAVE MONITOR] THIS IS INSIDE ADDR PHASE OF SLAVE MONITOR
# UVM_INFO ../slv_agent/ahb_slave_monitor.sv(129) @ 475: uvm_test_top.env_h.ahb_uvc_h[1].slv_agent_h[0].slv_mon_h [SLAVE MONITOR] THIS IS SLAVE SENDING TRANSECTION TO SEQUENCE
# ------------------------------------------------------------------
# NAME           TYPE        SUB-TYPE     SIZE          VALUE
# ------------------------------------------------------------------
# HWRITE       integral      binary        1          1
# HADDR        integral      hex          32         00000001
# HWDATA       integral      hex          32         3143978277
# hburst_type  hburst_enum   enum          3          INCR
# hsize_type   hsize_enum    enum          3          BYTE
# htrans_type  htrans_enum   enum          1          NONSEQ
# HRDATA       integral      hex          32         00004d00
# hresp_type   hresp_enum    enum          1          OKAY
# HREADYOUT    integral      binary        1          0
# -------------------------------------------------------------------
# UVM_INFO ../seq/ahb_slave_mem_response_sequence.sv(53) @ 475: uvm_test_top.env_h.ahb_uvc_h[1].slv_agent_h[0].slv_seqr_h@@<unknown> [SLAVE SEQUENCE] This Is Slave Sequence Collected Transaction
# ------------------------------------------------------------------
# NAME           TYPE        SUB-TYPE     SIZE          VALUE
# ------------------------------------------------------------------
# HWRITE       integral      binary        1          1
# HADDR        integral      hex          32         00000001
# HWDATA       integral      hex          32         3143978277
# hburst_type  hburst_enum   enum          3          INCR
# hsize_type   hsize_enum    enum          3          BYTE
# htrans_type  htrans_enum   enum          1          NONSEQ
# HRDATA       integral      hex          32         00004d00
# hresp_type   hresp_enum    enum          1          OKAY
# HREADYOUT    integral      binary        1          0
# -------------------------------------------------------------------
# UVM_INFO ../slv_agent/ahb_slave_driver.sv(89) @ 475: uvm_test_top.env_h.ahb_uvc_h[1].slv_agent_h[0].slv_drv_h [SLAVE DRIVER] THIS IS INSIDE SLAVE DRIVER
# ------------------------------------------------------------------
# NAME           TYPE        SUB-TYPE     SIZE          VALUE
# ------------------------------------------------------------------
# HWRITE       integral      binary        1          1
# HADDR        integral      hex          32         00000001
# HWDATA       integral      hex          32         3143978277
# hburst_type  hburst_enum   enum          3          INCR
# hsize_type   hsize_enum    enum          3          BYTE
# htrans_type  htrans_enum   enum          1          NONSEQ
# HRDATA       integral      hex          32         00004d00
# hresp_type   hresp_enum    enum          1          OKAY
# HREADYOUT    integral      binary        1          1
# -------------------------------------------------------------------
# UVM_INFO ../slv_agent/ahb_slave_driver.sv(121) @ 475: uvm_test_top.env_h.ahb_uvc_h[1].slv_agent_h[0].slv_drv_h [SLAVE DRIVER] THIS IS INSIDE READ OKAY RESP
# UVM_INFO ../mas_agent/ahb_master_driver.sv(107) @ 475: uvm_test_top.env_h.ahb_uvc_h[0].mas_agent_h[0].mas_drv_h [MASTER DRIVER] THIS IS INSIDE MASTER DRIVER
# ------------------------------------------------------------------
# NAME           TYPE        SUB-TYPE     SIZE          VALUE
# ------------------------------------------------------------------
# HWRITE        integral      binary        1          0
# HADDR         integral      hex          32         00000001
# HWDATA        integral      hex          32         '{1491690934}
# hburst_type   hburst_enum   enum          3          INCR
# hsize_type    hsize_enum    enum          3          BYTE
# htrans_type   htrans_enum   enum          3          '{NONSEQ}
# HRDATA        integral      hex          32         00000000
# hresp_type    htrans_enum   enum          2          OKAY
# hready        hready        bit           1          0
# -------------------------------------------------------------------
# UVM_INFO ../mas_agent/ahb_master_driver.sv(497) @ 525: uvm_test_top.env_h.ahb_uvc_h[0].mas_agent_h[0].mas_drv_h [uvm_driver #(REQ,RSP)] DATA PHASE!!size of queue=========='{}
# UVM_INFO ../mas_agent/ahb_master_driver.sv(504) @ 525: uvm_test_top.env_h.ahb_uvc_h[0].mas_agent_h[0].mas_drv_h [uvm_driver #(REQ,RSP)] DATA PHASE!!going to be end!!
# UVM_INFO ../mas_agent/ahb_master_driver.sv(421) @ 525: uvm_test_top.env_h.ahb_uvc_h[0].mas_agent_h[0].mas_drv_h [uvm_driver #(REQ,RSP)] ADDR PHASE!!going to be end!!
# UVM_INFO ../mas_agent/ahb_master_monitor.sv(138) @ 525: uvm_test_top.env_h.ahb_uvc_h[0].mas_agent_h[0].mas_mon_h [MASTER MONITOR] INSIDE DATA PHASE OF MAS MON
# UVM_INFO ../mas_agent/ahb_master_monitor.sv(144) @ 525: uvm_test_top.env_h.ahb_uvc_h[0].mas_agent_h[0].mas_mon_h [MASTER MONITOR] THIS IS MONITOR DATA_PHASE SENDING TRANSECTION
# ------------------------------------------------------------------
# NAME           TYPE        SUB-TYPE     SIZE          VALUE
# ------------------------------------------------------------------
# HWRITE        integral      binary        1          1
# HADDR         integral      hex          32         00000001
# HWDATA        integral      hex          32         '{3026240323}
# hburst_type   hburst_enum   enum          3          INCR
# hsize_type    hsize_enum    enum          3          BYTE
# htrans_type   htrans_enum   enum          3          '{NONSEQ}
# HRDATA        integral      hex          32         00004d00
# hresp_type    htrans_enum   enum          2          OKAY
# hready        hready        bit           1          1
# -------------------------------------------------------------------
# UVM_INFO ../mas_agent/ahb_master_monitor.sv(114) @ 525: uvm_test_top.env_h.ahb_uvc_h[0].mas_agent_h[0].mas_mon_h [MASTER MONITOR] INSIDE ADDR PHASE OF MAS MON
# UVM_INFO ../mas_agent/ahb_master_monitor.sv(122) @ 525: uvm_test_top.env_h.ahb_uvc_h[0].mas_agent_h[0].mas_mon_h [MASTER MONITOR] THIS IS MONITOR ADDR PHASE SENDING TRANSECTION
# ------------------------------------------------------------------
# NAME           TYPE        SUB-TYPE     SIZE          VALUE
# ------------------------------------------------------------------
# HWRITE        integral      binary        1          0
# HADDR         integral      hex          32         00000001
# HWDATA        integral      hex          32         '{3026240323}
# hburst_type   hburst_enum   enum          3          INCR
# hsize_type    hsize_enum    enum          3          BYTE
# htrans_type   htrans_enum   enum          3          '{NONSEQ}
# HRDATA        integral      hex          32         00004d00
# hresp_type    htrans_enum   enum          2          OKAY
# hready        hready        bit           1          1
# -------------------------------------------------------------------
# UVM_INFO ../mas_agent/ahb_master_checker.sv(126) @ 525: uvm_test_top.env_h.ahb_uvc_h[0].mas_agent_h[0].mas_chk_h [MASTER CHECKER] THIS IS CHECKER RECEIVED TRANSECTION
# ------------------------------------------------------------------
# NAME           TYPE        SUB-TYPE     SIZE          VALUE
# ------------------------------------------------------------------
# HWRITE        integral      binary        1          0
# HADDR         integral      hex          32         00000001
# HWDATA        integral      hex          32         '{3026240323}
# hburst_type   hburst_enum   enum          3          INCR
# hsize_type    hsize_enum    enum          3          BYTE
# htrans_type   htrans_enum   enum          3          '{NONSEQ}
# HRDATA        integral      hex          32         00004d00
# hresp_type    htrans_enum   enum          2          OKAY
# hready        hready        bit           1          1
# -------------------------------------------------------------------
# UVM_INFO ../mas_agent/ahb_master_checker.sv(145) @ 525: uvm_test_top.env_h.ahb_uvc_h[0].mas_agent_h[0].mas_chk_h [ahb_mas_checker] size of check trans q = 2 | res = 2
# UVM_INFO ../slv_agent/ahb_slave_driver.sv(62) @ 525: uvm_test_top.env_h.ahb_uvc_h[1].slv_agent_h[0].slv_drv_h [SLAVE_DRIVER] THIS IS BEFOR GET NEXT ITEM
# UVM_INFO ../slv_agent/ahb_slave_monitor.sv(161) @ 525: uvm_test_top.env_h.ahb_uvc_h[1].slv_agent_h[0].slv_mon_h [SLAVE MONITOR] THIS IS INSIDE DATA PHASE OF SLAVE MONITOR
# UVM_INFO ../slv_agent/ahb_slave_monitor.sv(167) @ 525: uvm_test_top.env_h.ahb_uvc_h[1].slv_agent_h[0].slv_mon_h [SLAVE MONITOR] THIS IS SLAVE SENDING TRANSECTION TO SCOREBOARD AND SEQUENCE
# ------------------------------------------------------------------
# NAME           TYPE        SUB-TYPE     SIZE          VALUE
# ------------------------------------------------------------------
# HWRITE       integral      binary        1          1
# HADDR        integral      hex          32         00000001
# HWDATA       integral      hex          32         3026240323
# hburst_type  hburst_enum   enum          3          INCR
# hsize_type   hsize_enum    enum          3          BYTE
# htrans_type  htrans_enum   enum          1          NONSEQ
# HRDATA       integral      hex          32         00004d00
# hresp_type   hresp_enum    enum          1          OKAY
# HREADYOUT    integral      binary        1          0
# -------------------------------------------------------------------
# UVM_INFO ../slv_agent/ahb_slave_monitor.sv(121) @ 525: uvm_test_top.env_h.ahb_uvc_h[1].slv_agent_h[0].slv_mon_h [SLAVE MONITOR] THIS IS INSIDE ADDR PHASE OF SLAVE MONITOR
# UVM_INFO ../slv_agent/ahb_slave_monitor.sv(129) @ 525: uvm_test_top.env_h.ahb_uvc_h[1].slv_agent_h[0].slv_mon_h [SLAVE MONITOR] THIS IS SLAVE SENDING TRANSECTION TO SEQUENCE
# ------------------------------------------------------------------
# NAME           TYPE        SUB-TYPE     SIZE          VALUE
# ------------------------------------------------------------------
# HWRITE       integral      binary        1          0
# HADDR        integral      hex          32         00000001
# HWDATA       integral      hex          32         3026240323
# hburst_type  hburst_enum   enum          3          INCR
# hsize_type   hsize_enum    enum          3          BYTE
# htrans_type  htrans_enum   enum          1          NONSEQ
# HRDATA       integral      hex          32         00004d00
# hresp_type   hresp_enum    enum          1          OKAY
# HREADYOUT    integral      binary        1          0
# -------------------------------------------------------------------
# UVM_INFO ../seq/ahb_slave_mem_response_sequence.sv(53) @ 525: uvm_test_top.env_h.ahb_uvc_h[1].slv_agent_h[0].slv_seqr_h@@<unknown> [SLAVE SEQUENCE] This Is Slave Sequence Collected Transaction
# ------------------------------------------------------------------
# NAME           TYPE        SUB-TYPE     SIZE          VALUE
# ------------------------------------------------------------------
# HWRITE       integral      binary        1          0
# HADDR        integral      hex          32         00000001
# HWDATA       integral      hex          32         3026240323
# hburst_type  hburst_enum   enum          3          INCR
# hsize_type   hsize_enum    enum          3          BYTE
# htrans_type  htrans_enum   enum          1          NONSEQ
# HRDATA       integral      hex          32         00004d00
# hresp_type   hresp_enum    enum          1          OKAY
# HREADYOUT    integral      binary        1          0
# -------------------------------------------------------------------
# UVM_INFO ../seq/ahb_base_slave_sequence.sv(118) @ 525: uvm_test_top.env_h.ahb_uvc_h[1].slv_agent_h[0].slv_seqr_h@@<unknown> [SLAVE SEQUENCE] This Is Inside Write Transfer
# UVM_INFO ../seq/ahb_base_slave_sequence.sv(129) @ 525: uvm_test_top.env_h.ahb_uvc_h[1].slv_agent_h[0].slv_seqr_h@@<unknown> [SLAVE SEQUENCE] This Is Slave Sending Transfer To Sequencer
# ------------------------------------------------------------------
# NAME           TYPE        SUB-TYPE     SIZE          VALUE
# ------------------------------------------------------------------
# HWRITE       integral      binary        1          0
# HADDR        integral      hex          32         00000001
# HWDATA       integral      hex          32         3026240323
# hburst_type  hburst_enum   enum          3          INCR
# hsize_type   hsize_enum    enum          3          BYTE
# htrans_type  htrans_enum   enum          1          NONSEQ
# HRDATA       integral      hex          32         00004d00
# hresp_type   hresp_enum    enum          1          OKAY
# HREADYOUT    integral      binary        1          0
# -------------------------------------------------------------------
# UVM_INFO ../seq/ahb_base_slave_sequence.sv(71) @ 525: uvm_test_top.env_h.ahb_uvc_h[1].slv_agent_h[0].slv_seqr_h@@<unknown> [SLAVE SEQUENCE] This Is Read Transfer
# UVM_INFO ../seq/ahb_base_slave_sequence.sv(83) @ 525: uvm_test_top.env_h.ahb_uvc_h[1].slv_agent_h[0].slv_seqr_h@@<unknown> [SLAVE SEQUENCE] This Slave Sending Transaction To The Sequencer
# ------------------------------------------------------------------
# NAME           TYPE        SUB-TYPE     SIZE          VALUE
# ------------------------------------------------------------------
# HWRITE       integral      binary        1          0
# HADDR        integral      hex          32         00000001
# HWDATA       integral      hex          32         3026240323
# hburst_type  hburst_enum   enum          3          INCR
# hsize_type   hsize_enum    enum          3          BYTE
# htrans_type  htrans_enum   enum          1          NONSEQ
# HRDATA       integral      hex          32         0000c300
# hresp_type   hresp_enum    enum          1          OKAY
# HREADYOUT    integral      binary        1          0
# -------------------------------------------------------------------
# UVM_INFO ../slv_agent/ahb_slave_driver.sv(89) @ 525: uvm_test_top.env_h.ahb_uvc_h[1].slv_agent_h[0].slv_drv_h [SLAVE DRIVER] THIS IS INSIDE SLAVE DRIVER
# ------------------------------------------------------------------
# NAME           TYPE        SUB-TYPE     SIZE          VALUE
# ------------------------------------------------------------------
# HWRITE       integral      binary        1          0
# HADDR        integral      hex          32         00000001
# HWDATA       integral      hex          32         3026240323
# hburst_type  hburst_enum   enum          3          INCR
# hsize_type   hsize_enum    enum          3          BYTE
# htrans_type  htrans_enum   enum          1          NONSEQ
# HRDATA       integral      hex          32         0000c300
# hresp_type   hresp_enum    enum          1          OKAY
# HREADYOUT    integral      binary        1          1
# -------------------------------------------------------------------
# UVM_INFO ../slv_agent/ahb_slave_driver.sv(121) @ 525: uvm_test_top.env_h.ahb_uvc_h[1].slv_agent_h[0].slv_drv_h [SLAVE DRIVER] THIS IS INSIDE READ OKAY RESP
# UVM_INFO ../mas_agent/ahb_master_driver.sv(107) @ 525: uvm_test_top.env_h.ahb_uvc_h[0].mas_agent_h[0].mas_drv_h [MASTER DRIVER] THIS IS INSIDE MASTER DRIVER
# ------------------------------------------------------------------
# NAME           TYPE        SUB-TYPE     SIZE          VALUE
# ------------------------------------------------------------------
# HWRITE        integral      binary        1          1
# HADDR         integral      hex          32         00000001
# HWDATA        integral      hex          32         '{2940460697}
# hburst_type   hburst_enum   enum          3          INCR
# hsize_type    hsize_enum    enum          3          BYTE
# htrans_type   htrans_enum   enum          3          '{NONSEQ}
# HRDATA        integral      hex          32         00000000
# hresp_type    htrans_enum   enum          2          OKAY
# hready        hready        bit           1          0
# -------------------------------------------------------------------
# UVM_INFO ../mas_agent/ahb_master_driver.sv(497) @ 575: uvm_test_top.env_h.ahb_uvc_h[0].mas_agent_h[0].mas_drv_h [uvm_driver #(REQ,RSP)] DATA PHASE!!size of queue=========='{}
# UVM_INFO ../mas_agent/ahb_master_driver.sv(504) @ 575: uvm_test_top.env_h.ahb_uvc_h[0].mas_agent_h[0].mas_drv_h [uvm_driver #(REQ,RSP)] DATA PHASE!!going to be end!!
# UVM_INFO ../mas_agent/ahb_master_driver.sv(421) @ 575: uvm_test_top.env_h.ahb_uvc_h[0].mas_agent_h[0].mas_drv_h [uvm_driver #(REQ,RSP)] ADDR PHASE!!going to be end!!
# UVM_INFO ../mas_agent/ahb_master_monitor.sv(138) @ 575: uvm_test_top.env_h.ahb_uvc_h[0].mas_agent_h[0].mas_mon_h [MASTER MONITOR] INSIDE DATA PHASE OF MAS MON
# UVM_INFO ../mas_agent/ahb_master_monitor.sv(144) @ 575: uvm_test_top.env_h.ahb_uvc_h[0].mas_agent_h[0].mas_mon_h [MASTER MONITOR] THIS IS MONITOR DATA_PHASE SENDING TRANSECTION
# ------------------------------------------------------------------
# NAME           TYPE        SUB-TYPE     SIZE          VALUE
# ------------------------------------------------------------------
# HWRITE        integral      binary        1          0
# HADDR         integral      hex          32         00000001
# HWDATA        integral      hex          32         '{3026240323}
# hburst_type   hburst_enum   enum          3          INCR
# hsize_type    hsize_enum    enum          3          BYTE
# htrans_type   htrans_enum   enum          3          '{NONSEQ}
# HRDATA        integral      hex          32         0000c300
# hresp_type    htrans_enum   enum          2          OKAY
# hready        hready        bit           1          1
# -------------------------------------------------------------------
# UVM_INFO ../mas_agent/ahb_master_monitor.sv(114) @ 575: uvm_test_top.env_h.ahb_uvc_h[0].mas_agent_h[0].mas_mon_h [MASTER MONITOR] INSIDE ADDR PHASE OF MAS MON
# UVM_INFO ../mas_agent/ahb_master_monitor.sv(122) @ 575: uvm_test_top.env_h.ahb_uvc_h[0].mas_agent_h[0].mas_mon_h [MASTER MONITOR] THIS IS MONITOR ADDR PHASE SENDING TRANSECTION
# ------------------------------------------------------------------
# NAME           TYPE        SUB-TYPE     SIZE          VALUE
# ------------------------------------------------------------------
# HWRITE        integral      binary        1          1
# HADDR         integral      hex          32         00000001
# HWDATA        integral      hex          32         '{3026240323}
# hburst_type   hburst_enum   enum          3          INCR
# hsize_type    hsize_enum    enum          3          BYTE
# htrans_type   htrans_enum   enum          3          '{NONSEQ}
# HRDATA        integral      hex          32         0000c300
# hresp_type    htrans_enum   enum          2          OKAY
# hready        hready        bit           1          1
# -------------------------------------------------------------------
# UVM_INFO ../mas_agent/ahb_master_checker.sv(126) @ 575: uvm_test_top.env_h.ahb_uvc_h[0].mas_agent_h[0].mas_chk_h [MASTER CHECKER] THIS IS CHECKER RECEIVED TRANSECTION
# ------------------------------------------------------------------
# NAME           TYPE        SUB-TYPE     SIZE          VALUE
# ------------------------------------------------------------------
# HWRITE        integral      binary        1          1
# HADDR         integral      hex          32         00000001
# HWDATA        integral      hex          32         '{3026240323}
# hburst_type   hburst_enum   enum          3          INCR
# hsize_type    hsize_enum    enum          3          BYTE
# htrans_type   htrans_enum   enum          3          '{NONSEQ}
# HRDATA        integral      hex          32         0000c300
# hresp_type    htrans_enum   enum          2          OKAY
# hready        hready        bit           1          1
# -------------------------------------------------------------------
# UVM_INFO ../mas_agent/ahb_master_checker.sv(145) @ 575: uvm_test_top.env_h.ahb_uvc_h[0].mas_agent_h[0].mas_chk_h [ahb_mas_checker] size of check trans q = 2 | res = 2
# UVM_INFO ../slv_agent/ahb_slave_driver.sv(62) @ 575: uvm_test_top.env_h.ahb_uvc_h[1].slv_agent_h[0].slv_drv_h [SLAVE_DRIVER] THIS IS BEFOR GET NEXT ITEM
# UVM_INFO ../slv_agent/ahb_slave_monitor.sv(161) @ 575: uvm_test_top.env_h.ahb_uvc_h[1].slv_agent_h[0].slv_mon_h [SLAVE MONITOR] THIS IS INSIDE DATA PHASE OF SLAVE MONITOR
# UVM_INFO ../slv_agent/ahb_slave_monitor.sv(167) @ 575: uvm_test_top.env_h.ahb_uvc_h[1].slv_agent_h[0].slv_mon_h [SLAVE MONITOR] THIS IS SLAVE SENDING TRANSECTION TO SCOREBOARD AND SEQUENCE
# ------------------------------------------------------------------
# NAME           TYPE        SUB-TYPE     SIZE          VALUE
# ------------------------------------------------------------------
# HWRITE       integral      binary        1          0
# HADDR        integral      hex          32         00000001
# HWDATA       integral      hex          32         3026240323
# hburst_type  hburst_enum   enum          3          INCR
# hsize_type   hsize_enum    enum          3          BYTE
# htrans_type  htrans_enum   enum          1          NONSEQ
# HRDATA       integral      hex          32         0000c300
# hresp_type   hresp_enum    enum          1          OKAY
# HREADYOUT    integral      binary        1          0
# -------------------------------------------------------------------
# UVM_INFO ../slv_agent/ahb_slave_monitor.sv(121) @ 575: uvm_test_top.env_h.ahb_uvc_h[1].slv_agent_h[0].slv_mon_h [SLAVE MONITOR] THIS IS INSIDE ADDR PHASE OF SLAVE MONITOR
# UVM_INFO ../slv_agent/ahb_slave_monitor.sv(129) @ 575: uvm_test_top.env_h.ahb_uvc_h[1].slv_agent_h[0].slv_mon_h [SLAVE MONITOR] THIS IS SLAVE SENDING TRANSECTION TO SEQUENCE
# ------------------------------------------------------------------
# NAME           TYPE        SUB-TYPE     SIZE          VALUE
# ------------------------------------------------------------------
# HWRITE       integral      binary        1          1
# HADDR        integral      hex          32         00000001
# HWDATA       integral      hex          32         3026240323
# hburst_type  hburst_enum   enum          3          INCR
# hsize_type   hsize_enum    enum          3          BYTE
# htrans_type  htrans_enum   enum          1          NONSEQ
# HRDATA       integral      hex          32         0000c300
# hresp_type   hresp_enum    enum          1          OKAY
# HREADYOUT    integral      binary        1          0
# -------------------------------------------------------------------
# UVM_INFO ../seq/ahb_slave_mem_response_sequence.sv(53) @ 575: uvm_test_top.env_h.ahb_uvc_h[1].slv_agent_h[0].slv_seqr_h@@<unknown> [SLAVE SEQUENCE] This Is Slave Sequence Collected Transaction
# ------------------------------------------------------------------
# NAME           TYPE        SUB-TYPE     SIZE          VALUE
# ------------------------------------------------------------------
# HWRITE       integral      binary        1          1
# HADDR        integral      hex          32         00000001
# HWDATA       integral      hex          32         3026240323
# hburst_type  hburst_enum   enum          3          INCR
# hsize_type   hsize_enum    enum          3          BYTE
# htrans_type  htrans_enum   enum          1          NONSEQ
# HRDATA       integral      hex          32         0000c300
# hresp_type   hresp_enum    enum          1          OKAY
# HREADYOUT    integral      binary        1          0
# -------------------------------------------------------------------
# UVM_INFO ../slv_agent/ahb_slave_driver.sv(89) @ 575: uvm_test_top.env_h.ahb_uvc_h[1].slv_agent_h[0].slv_drv_h [SLAVE DRIVER] THIS IS INSIDE SLAVE DRIVER
# ------------------------------------------------------------------
# NAME           TYPE        SUB-TYPE     SIZE          VALUE
# ------------------------------------------------------------------
# HWRITE       integral      binary        1          1
# HADDR        integral      hex          32         00000001
# HWDATA       integral      hex          32         3026240323
# hburst_type  hburst_enum   enum          3          INCR
# hsize_type   hsize_enum    enum          3          BYTE
# htrans_type  htrans_enum   enum          1          NONSEQ
# HRDATA       integral      hex          32         0000c300
# hresp_type   hresp_enum    enum          1          OKAY
# HREADYOUT    integral      binary        1          1
# -------------------------------------------------------------------
# UVM_INFO ../slv_agent/ahb_slave_driver.sv(121) @ 575: uvm_test_top.env_h.ahb_uvc_h[1].slv_agent_h[0].slv_drv_h [SLAVE DRIVER] THIS IS INSIDE READ OKAY RESP
# UVM_INFO ../mas_agent/ahb_master_driver.sv(107) @ 575: uvm_test_top.env_h.ahb_uvc_h[0].mas_agent_h[0].mas_drv_h [MASTER DRIVER] THIS IS INSIDE MASTER DRIVER
# ------------------------------------------------------------------
# NAME           TYPE        SUB-TYPE     SIZE          VALUE
# ------------------------------------------------------------------
# HWRITE        integral      binary        1          0
# HADDR         integral      hex          32         00000001
# HWDATA        integral      hex          32         '{2589989075}
# hburst_type   hburst_enum   enum          3          INCR
# hsize_type    hsize_enum    enum          3          BYTE
# htrans_type   htrans_enum   enum          3          '{NONSEQ}
# HRDATA        integral      hex          32         00000000
# hresp_type    htrans_enum   enum          2          OKAY
# hready        hready        bit           1          0
# -------------------------------------------------------------------
# UVM_INFO ../mas_agent/ahb_master_driver.sv(497) @ 625: uvm_test_top.env_h.ahb_uvc_h[0].mas_agent_h[0].mas_drv_h [uvm_driver #(REQ,RSP)] DATA PHASE!!size of queue=========='{}
# UVM_INFO ../mas_agent/ahb_master_driver.sv(504) @ 625: uvm_test_top.env_h.ahb_uvc_h[0].mas_agent_h[0].mas_drv_h [uvm_driver #(REQ,RSP)] DATA PHASE!!going to be end!!
# UVM_INFO ../mas_agent/ahb_master_driver.sv(421) @ 625: uvm_test_top.env_h.ahb_uvc_h[0].mas_agent_h[0].mas_drv_h [uvm_driver #(REQ,RSP)] ADDR PHASE!!going to be end!!
# UVM_INFO ../mas_agent/ahb_master_monitor.sv(138) @ 625: uvm_test_top.env_h.ahb_uvc_h[0].mas_agent_h[0].mas_mon_h [MASTER MONITOR] INSIDE DATA PHASE OF MAS MON
# UVM_INFO ../mas_agent/ahb_master_monitor.sv(144) @ 625: uvm_test_top.env_h.ahb_uvc_h[0].mas_agent_h[0].mas_mon_h [MASTER MONITOR] THIS IS MONITOR DATA_PHASE SENDING TRANSECTION
# ------------------------------------------------------------------
# NAME           TYPE        SUB-TYPE     SIZE          VALUE
# ------------------------------------------------------------------
# HWRITE        integral      binary        1          1
# HADDR         integral      hex          32         00000001
# HWDATA        integral      hex          32         '{2940460697}
# hburst_type   hburst_enum   enum          3          INCR
# hsize_type    hsize_enum    enum          3          BYTE
# htrans_type   htrans_enum   enum          3          '{NONSEQ}
# HRDATA        integral      hex          32         0000c300
# hresp_type    htrans_enum   enum          2          OKAY
# hready        hready        bit           1          1
# -------------------------------------------------------------------
# UVM_INFO ../mas_agent/ahb_master_monitor.sv(114) @ 625: uvm_test_top.env_h.ahb_uvc_h[0].mas_agent_h[0].mas_mon_h [MASTER MONITOR] INSIDE ADDR PHASE OF MAS MON
# UVM_INFO ../mas_agent/ahb_master_monitor.sv(122) @ 625: uvm_test_top.env_h.ahb_uvc_h[0].mas_agent_h[0].mas_mon_h [MASTER MONITOR] THIS IS MONITOR ADDR PHASE SENDING TRANSECTION
# ------------------------------------------------------------------
# NAME           TYPE        SUB-TYPE     SIZE          VALUE
# ------------------------------------------------------------------
# HWRITE        integral      binary        1          0
# HADDR         integral      hex          32         00000001
# HWDATA        integral      hex          32         '{2940460697}
# hburst_type   hburst_enum   enum          3          INCR
# hsize_type    hsize_enum    enum          3          BYTE
# htrans_type   htrans_enum   enum          3          '{NONSEQ}
# HRDATA        integral      hex          32         0000c300
# hresp_type    htrans_enum   enum          2          OKAY
# hready        hready        bit           1          1
# -------------------------------------------------------------------
# UVM_INFO ../mas_agent/ahb_master_checker.sv(126) @ 625: uvm_test_top.env_h.ahb_uvc_h[0].mas_agent_h[0].mas_chk_h [MASTER CHECKER] THIS IS CHECKER RECEIVED TRANSECTION
# ------------------------------------------------------------------
# NAME           TYPE        SUB-TYPE     SIZE          VALUE
# ------------------------------------------------------------------
# HWRITE        integral      binary        1          0
# HADDR         integral      hex          32         00000001
# HWDATA        integral      hex          32         '{2940460697}
# hburst_type   hburst_enum   enum          3          INCR
# hsize_type    hsize_enum    enum          3          BYTE
# htrans_type   htrans_enum   enum          3          '{NONSEQ}
# HRDATA        integral      hex          32         0000c300
# hresp_type    htrans_enum   enum          2          OKAY
# hready        hready        bit           1          1
# -------------------------------------------------------------------
# UVM_INFO ../mas_agent/ahb_master_checker.sv(145) @ 625: uvm_test_top.env_h.ahb_uvc_h[0].mas_agent_h[0].mas_chk_h [ahb_mas_checker] size of check trans q = 2 | res = 2
# UVM_INFO ../slv_agent/ahb_slave_driver.sv(62) @ 625: uvm_test_top.env_h.ahb_uvc_h[1].slv_agent_h[0].slv_drv_h [SLAVE_DRIVER] THIS IS BEFOR GET NEXT ITEM
# UVM_INFO ../slv_agent/ahb_slave_monitor.sv(161) @ 625: uvm_test_top.env_h.ahb_uvc_h[1].slv_agent_h[0].slv_mon_h [SLAVE MONITOR] THIS IS INSIDE DATA PHASE OF SLAVE MONITOR
# UVM_INFO ../slv_agent/ahb_slave_monitor.sv(167) @ 625: uvm_test_top.env_h.ahb_uvc_h[1].slv_agent_h[0].slv_mon_h [SLAVE MONITOR] THIS IS SLAVE SENDING TRANSECTION TO SCOREBOARD AND SEQUENCE
# ------------------------------------------------------------------
# NAME           TYPE        SUB-TYPE     SIZE          VALUE
# ------------------------------------------------------------------
# HWRITE       integral      binary        1          1
# HADDR        integral      hex          32         00000001
# HWDATA       integral      hex          32         2940460697
# hburst_type  hburst_enum   enum          3          INCR
# hsize_type   hsize_enum    enum          3          BYTE
# htrans_type  htrans_enum   enum          1          NONSEQ
# HRDATA       integral      hex          32         0000c300
# hresp_type   hresp_enum    enum          1          OKAY
# HREADYOUT    integral      binary        1          0
# -------------------------------------------------------------------
# UVM_INFO ../slv_agent/ahb_slave_monitor.sv(121) @ 625: uvm_test_top.env_h.ahb_uvc_h[1].slv_agent_h[0].slv_mon_h [SLAVE MONITOR] THIS IS INSIDE ADDR PHASE OF SLAVE MONITOR
# UVM_INFO ../slv_agent/ahb_slave_monitor.sv(129) @ 625: uvm_test_top.env_h.ahb_uvc_h[1].slv_agent_h[0].slv_mon_h [SLAVE MONITOR] THIS IS SLAVE SENDING TRANSECTION TO SEQUENCE
# ------------------------------------------------------------------
# NAME           TYPE        SUB-TYPE     SIZE          VALUE
# ------------------------------------------------------------------
# HWRITE       integral      binary        1          0
# HADDR        integral      hex          32         00000001
# HWDATA       integral      hex          32         2940460697
# hburst_type  hburst_enum   enum          3          INCR
# hsize_type   hsize_enum    enum          3          BYTE
# htrans_type  htrans_enum   enum          1          NONSEQ
# HRDATA       integral      hex          32         0000c300
# hresp_type   hresp_enum    enum          1          OKAY
# HREADYOUT    integral      binary        1          0
# -------------------------------------------------------------------
# UVM_INFO ../seq/ahb_slave_mem_response_sequence.sv(53) @ 625: uvm_test_top.env_h.ahb_uvc_h[1].slv_agent_h[0].slv_seqr_h@@<unknown> [SLAVE SEQUENCE] This Is Slave Sequence Collected Transaction
# ------------------------------------------------------------------
# NAME           TYPE        SUB-TYPE     SIZE          VALUE
# ------------------------------------------------------------------
# HWRITE       integral      binary        1          0
# HADDR        integral      hex          32         00000001
# HWDATA       integral      hex          32         2940460697
# hburst_type  hburst_enum   enum          3          INCR
# hsize_type   hsize_enum    enum          3          BYTE
# htrans_type  htrans_enum   enum          1          NONSEQ
# HRDATA       integral      hex          32         0000c300
# hresp_type   hresp_enum    enum          1          OKAY
# HREADYOUT    integral      binary        1          0
# -------------------------------------------------------------------
# UVM_INFO ../seq/ahb_base_slave_sequence.sv(118) @ 625: uvm_test_top.env_h.ahb_uvc_h[1].slv_agent_h[0].slv_seqr_h@@<unknown> [SLAVE SEQUENCE] This Is Inside Write Transfer
# UVM_INFO ../seq/ahb_base_slave_sequence.sv(129) @ 625: uvm_test_top.env_h.ahb_uvc_h[1].slv_agent_h[0].slv_seqr_h@@<unknown> [SLAVE SEQUENCE] This Is Slave Sending Transfer To Sequencer
# ------------------------------------------------------------------
# NAME           TYPE        SUB-TYPE     SIZE          VALUE
# ------------------------------------------------------------------
# HWRITE       integral      binary        1          0
# HADDR        integral      hex          32         00000001
# HWDATA       integral      hex          32         2940460697
# hburst_type  hburst_enum   enum          3          INCR
# hsize_type   hsize_enum    enum          3          BYTE
# htrans_type  htrans_enum   enum          1          NONSEQ
# HRDATA       integral      hex          32         0000c300
# hresp_type   hresp_enum    enum          1          OKAY
# HREADYOUT    integral      binary        1          0
# -------------------------------------------------------------------
# UVM_INFO ../seq/ahb_base_slave_sequence.sv(71) @ 625: uvm_test_top.env_h.ahb_uvc_h[1].slv_agent_h[0].slv_seqr_h@@<unknown> [SLAVE SEQUENCE] This Is Read Transfer
# UVM_INFO ../seq/ahb_base_slave_sequence.sv(83) @ 625: uvm_test_top.env_h.ahb_uvc_h[1].slv_agent_h[0].slv_seqr_h@@<unknown> [SLAVE SEQUENCE] This Slave Sending Transaction To The Sequencer
# ------------------------------------------------------------------
# NAME           TYPE        SUB-TYPE     SIZE          VALUE
# ------------------------------------------------------------------
# HWRITE       integral      binary        1          0
# HADDR        integral      hex          32         00000001
# HWDATA       integral      hex          32         2940460697
# hburst_type  hburst_enum   enum          3          INCR
# hsize_type   hsize_enum    enum          3          BYTE
# htrans_type  htrans_enum   enum          1          NONSEQ
# HRDATA       integral      hex          32         0000de00
# hresp_type   hresp_enum    enum          1          OKAY
# HREADYOUT    integral      binary        1          0
# -------------------------------------------------------------------
# UVM_INFO ../slv_agent/ahb_slave_driver.sv(89) @ 625: uvm_test_top.env_h.ahb_uvc_h[1].slv_agent_h[0].slv_drv_h [SLAVE DRIVER] THIS IS INSIDE SLAVE DRIVER
# ------------------------------------------------------------------
# NAME           TYPE        SUB-TYPE     SIZE          VALUE
# ------------------------------------------------------------------
# HWRITE       integral      binary        1          0
# HADDR        integral      hex          32         00000001
# HWDATA       integral      hex          32         2940460697
# hburst_type  hburst_enum   enum          3          INCR
# hsize_type   hsize_enum    enum          3          BYTE
# htrans_type  htrans_enum   enum          1          NONSEQ
# HRDATA       integral      hex          32         0000de00
# hresp_type   hresp_enum    enum          1          OKAY
# HREADYOUT    integral      binary        1          1
# -------------------------------------------------------------------
# UVM_INFO ../slv_agent/ahb_slave_driver.sv(121) @ 625: uvm_test_top.env_h.ahb_uvc_h[1].slv_agent_h[0].slv_drv_h [SLAVE DRIVER] THIS IS INSIDE READ OKAY RESP
# UVM_INFO ../mas_agent/ahb_master_driver.sv(107) @ 625: uvm_test_top.env_h.ahb_uvc_h[0].mas_agent_h[0].mas_drv_h [MASTER DRIVER] THIS IS INSIDE MASTER DRIVER
# ------------------------------------------------------------------
# NAME           TYPE        SUB-TYPE     SIZE          VALUE
# ------------------------------------------------------------------
# HWRITE        integral      binary        1          1
# HADDR         integral      hex          32         00000001
# HWDATA        integral      hex          32         '{726372107}
# hburst_type   hburst_enum   enum          3          INCR
# hsize_type    hsize_enum    enum          3          BYTE
# htrans_type   htrans_enum   enum          3          '{NONSEQ}
# HRDATA        integral      hex          32         00000000
# hresp_type    htrans_enum   enum          2          OKAY
# hready        hready        bit           1          0
# -------------------------------------------------------------------
# UVM_INFO ../mas_agent/ahb_master_driver.sv(497) @ 675: uvm_test_top.env_h.ahb_uvc_h[0].mas_agent_h[0].mas_drv_h [uvm_driver #(REQ,RSP)] DATA PHASE!!size of queue=========='{}
# UVM_INFO ../mas_agent/ahb_master_driver.sv(504) @ 675: uvm_test_top.env_h.ahb_uvc_h[0].mas_agent_h[0].mas_drv_h [uvm_driver #(REQ,RSP)] DATA PHASE!!going to be end!!
# UVM_INFO ../mas_agent/ahb_master_driver.sv(421) @ 675: uvm_test_top.env_h.ahb_uvc_h[0].mas_agent_h[0].mas_drv_h [uvm_driver #(REQ,RSP)] ADDR PHASE!!going to be end!!
# UVM_INFO ../mas_agent/ahb_master_monitor.sv(138) @ 675: uvm_test_top.env_h.ahb_uvc_h[0].mas_agent_h[0].mas_mon_h [MASTER MONITOR] INSIDE DATA PHASE OF MAS MON
# UVM_INFO ../mas_agent/ahb_master_monitor.sv(144) @ 675: uvm_test_top.env_h.ahb_uvc_h[0].mas_agent_h[0].mas_mon_h [MASTER MONITOR] THIS IS MONITOR DATA_PHASE SENDING TRANSECTION
# ------------------------------------------------------------------
# NAME           TYPE        SUB-TYPE     SIZE          VALUE
# ------------------------------------------------------------------
# HWRITE        integral      binary        1          0
# HADDR         integral      hex          32         00000001
# HWDATA        integral      hex          32         '{2940460697}
# hburst_type   hburst_enum   enum          3          INCR
# hsize_type    hsize_enum    enum          3          BYTE
# htrans_type   htrans_enum   enum          3          '{NONSEQ}
# HRDATA        integral      hex          32         0000de00
# hresp_type    htrans_enum   enum          2          OKAY
# hready        hready        bit           1          1
# -------------------------------------------------------------------
# UVM_INFO ../mas_agent/ahb_master_monitor.sv(114) @ 675: uvm_test_top.env_h.ahb_uvc_h[0].mas_agent_h[0].mas_mon_h [MASTER MONITOR] INSIDE ADDR PHASE OF MAS MON
# UVM_INFO ../mas_agent/ahb_master_monitor.sv(122) @ 675: uvm_test_top.env_h.ahb_uvc_h[0].mas_agent_h[0].mas_mon_h [MASTER MONITOR] THIS IS MONITOR ADDR PHASE SENDING TRANSECTION
# ------------------------------------------------------------------
# NAME           TYPE        SUB-TYPE     SIZE          VALUE
# ------------------------------------------------------------------
# HWRITE        integral      binary        1          1
# HADDR         integral      hex          32         00000001
# HWDATA        integral      hex          32         '{2940460697}
# hburst_type   hburst_enum   enum          3          INCR
# hsize_type    hsize_enum    enum          3          BYTE
# htrans_type   htrans_enum   enum          3          '{NONSEQ}
# HRDATA        integral      hex          32         0000de00
# hresp_type    htrans_enum   enum          2          OKAY
# hready        hready        bit           1          1
# -------------------------------------------------------------------
# UVM_INFO ../mas_agent/ahb_master_checker.sv(126) @ 675: uvm_test_top.env_h.ahb_uvc_h[0].mas_agent_h[0].mas_chk_h [MASTER CHECKER] THIS IS CHECKER RECEIVED TRANSECTION
# ------------------------------------------------------------------
# NAME           TYPE        SUB-TYPE     SIZE          VALUE
# ------------------------------------------------------------------
# HWRITE        integral      binary        1          1
# HADDR         integral      hex          32         00000001
# HWDATA        integral      hex          32         '{2940460697}
# hburst_type   hburst_enum   enum          3          INCR
# hsize_type    hsize_enum    enum          3          BYTE
# htrans_type   htrans_enum   enum          3          '{NONSEQ}
# HRDATA        integral      hex          32         0000de00
# hresp_type    htrans_enum   enum          2          OKAY
# hready        hready        bit           1          1
# -------------------------------------------------------------------
# UVM_INFO ../mas_agent/ahb_master_checker.sv(145) @ 675: uvm_test_top.env_h.ahb_uvc_h[0].mas_agent_h[0].mas_chk_h [ahb_mas_checker] size of check trans q = 2 | res = 2
# UVM_INFO ../slv_agent/ahb_slave_driver.sv(62) @ 675: uvm_test_top.env_h.ahb_uvc_h[1].slv_agent_h[0].slv_drv_h [SLAVE_DRIVER] THIS IS BEFOR GET NEXT ITEM
# UVM_INFO ../slv_agent/ahb_slave_monitor.sv(161) @ 675: uvm_test_top.env_h.ahb_uvc_h[1].slv_agent_h[0].slv_mon_h [SLAVE MONITOR] THIS IS INSIDE DATA PHASE OF SLAVE MONITOR
# UVM_INFO ../slv_agent/ahb_slave_monitor.sv(167) @ 675: uvm_test_top.env_h.ahb_uvc_h[1].slv_agent_h[0].slv_mon_h [SLAVE MONITOR] THIS IS SLAVE SENDING TRANSECTION TO SCOREBOARD AND SEQUENCE
# ------------------------------------------------------------------
# NAME           TYPE        SUB-TYPE     SIZE          VALUE
# ------------------------------------------------------------------
# HWRITE       integral      binary        1          0
# HADDR        integral      hex          32         00000001
# HWDATA       integral      hex          32         2940460697
# hburst_type  hburst_enum   enum          3          INCR
# hsize_type   hsize_enum    enum          3          BYTE
# htrans_type  htrans_enum   enum          1          NONSEQ
# HRDATA       integral      hex          32         0000de00
# hresp_type   hresp_enum    enum          1          OKAY
# HREADYOUT    integral      binary        1          0
# -------------------------------------------------------------------
# UVM_INFO ../slv_agent/ahb_slave_monitor.sv(121) @ 675: uvm_test_top.env_h.ahb_uvc_h[1].slv_agent_h[0].slv_mon_h [SLAVE MONITOR] THIS IS INSIDE ADDR PHASE OF SLAVE MONITOR
# UVM_INFO ../slv_agent/ahb_slave_monitor.sv(129) @ 675: uvm_test_top.env_h.ahb_uvc_h[1].slv_agent_h[0].slv_mon_h [SLAVE MONITOR] THIS IS SLAVE SENDING TRANSECTION TO SEQUENCE
# ------------------------------------------------------------------
# NAME           TYPE        SUB-TYPE     SIZE          VALUE
# ------------------------------------------------------------------
# HWRITE       integral      binary        1          1
# HADDR        integral      hex          32         00000001
# HWDATA       integral      hex          32         2940460697
# hburst_type  hburst_enum   enum          3          INCR
# hsize_type   hsize_enum    enum          3          BYTE
# htrans_type  htrans_enum   enum          1          NONSEQ
# HRDATA       integral      hex          32         0000de00
# hresp_type   hresp_enum    enum          1          OKAY
# HREADYOUT    integral      binary        1          0
# -------------------------------------------------------------------
# UVM_INFO ../seq/ahb_slave_mem_response_sequence.sv(53) @ 675: uvm_test_top.env_h.ahb_uvc_h[1].slv_agent_h[0].slv_seqr_h@@<unknown> [SLAVE SEQUENCE] This Is Slave Sequence Collected Transaction
# ------------------------------------------------------------------
# NAME           TYPE        SUB-TYPE     SIZE          VALUE
# ------------------------------------------------------------------
# HWRITE       integral      binary        1          1
# HADDR        integral      hex          32         00000001
# HWDATA       integral      hex          32         2940460697
# hburst_type  hburst_enum   enum          3          INCR
# hsize_type   hsize_enum    enum          3          BYTE
# htrans_type  htrans_enum   enum          1          NONSEQ
# HRDATA       integral      hex          32         0000de00
# hresp_type   hresp_enum    enum          1          OKAY
# HREADYOUT    integral      binary        1          0
# -------------------------------------------------------------------
# UVM_INFO ../slv_agent/ahb_slave_driver.sv(89) @ 675: uvm_test_top.env_h.ahb_uvc_h[1].slv_agent_h[0].slv_drv_h [SLAVE DRIVER] THIS IS INSIDE SLAVE DRIVER
# ------------------------------------------------------------------
# NAME           TYPE        SUB-TYPE     SIZE          VALUE
# ------------------------------------------------------------------
# HWRITE       integral      binary        1          1
# HADDR        integral      hex          32         00000001
# HWDATA       integral      hex          32         2940460697
# hburst_type  hburst_enum   enum          3          INCR
# hsize_type   hsize_enum    enum          3          BYTE
# htrans_type  htrans_enum   enum          1          NONSEQ
# HRDATA       integral      hex          32         0000de00
# hresp_type   hresp_enum    enum          1          OKAY
# HREADYOUT    integral      binary        1          1
# -------------------------------------------------------------------
# UVM_INFO ../slv_agent/ahb_slave_driver.sv(121) @ 675: uvm_test_top.env_h.ahb_uvc_h[1].slv_agent_h[0].slv_drv_h [SLAVE DRIVER] THIS IS INSIDE READ OKAY RESP
# UVM_INFO ../mas_agent/ahb_master_driver.sv(107) @ 675: uvm_test_top.env_h.ahb_uvc_h[0].mas_agent_h[0].mas_drv_h [MASTER DRIVER] THIS IS INSIDE MASTER DRIVER
# ------------------------------------------------------------------
# NAME           TYPE        SUB-TYPE     SIZE          VALUE
# ------------------------------------------------------------------
# HWRITE        integral      binary        1          0
# HADDR         integral      hex          32         00000001
# HWDATA        integral      hex          32         '{4281361406}
# hburst_type   hburst_enum   enum          3          INCR
# hsize_type    hsize_enum    enum          3          BYTE
# htrans_type   htrans_enum   enum          3          '{NONSEQ}
# HRDATA        integral      hex          32         00000000
# hresp_type    htrans_enum   enum          2          OKAY
# hready        hready        bit           1          0
# -------------------------------------------------------------------
# UVM_INFO ../mas_agent/ahb_master_driver.sv(497) @ 725: uvm_test_top.env_h.ahb_uvc_h[0].mas_agent_h[0].mas_drv_h [uvm_driver #(REQ,RSP)] DATA PHASE!!size of queue=========='{}
# UVM_INFO ../mas_agent/ahb_master_driver.sv(504) @ 725: uvm_test_top.env_h.ahb_uvc_h[0].mas_agent_h[0].mas_drv_h [uvm_driver #(REQ,RSP)] DATA PHASE!!going to be end!!
# UVM_INFO ../mas_agent/ahb_master_driver.sv(421) @ 725: uvm_test_top.env_h.ahb_uvc_h[0].mas_agent_h[0].mas_drv_h [uvm_driver #(REQ,RSP)] ADDR PHASE!!going to be end!!
# UVM_INFO ../mas_agent/ahb_master_monitor.sv(138) @ 725: uvm_test_top.env_h.ahb_uvc_h[0].mas_agent_h[0].mas_mon_h [MASTER MONITOR] INSIDE DATA PHASE OF MAS MON
# UVM_INFO ../mas_agent/ahb_master_monitor.sv(144) @ 725: uvm_test_top.env_h.ahb_uvc_h[0].mas_agent_h[0].mas_mon_h [MASTER MONITOR] THIS IS MONITOR DATA_PHASE SENDING TRANSECTION
# ------------------------------------------------------------------
# NAME           TYPE        SUB-TYPE     SIZE          VALUE
# ------------------------------------------------------------------
# HWRITE        integral      binary        1          1
# HADDR         integral      hex          32         00000001
# HWDATA        integral      hex          32         '{726372107}
# hburst_type   hburst_enum   enum          3          INCR
# hsize_type    hsize_enum    enum          3          BYTE
# htrans_type   htrans_enum   enum          3          '{NONSEQ}
# HRDATA        integral      hex          32         0000de00
# hresp_type    htrans_enum   enum          2          OKAY
# hready        hready        bit           1          1
# -------------------------------------------------------------------
# UVM_INFO ../mas_agent/ahb_master_monitor.sv(114) @ 725: uvm_test_top.env_h.ahb_uvc_h[0].mas_agent_h[0].mas_mon_h [MASTER MONITOR] INSIDE ADDR PHASE OF MAS MON
# UVM_INFO ../mas_agent/ahb_master_monitor.sv(122) @ 725: uvm_test_top.env_h.ahb_uvc_h[0].mas_agent_h[0].mas_mon_h [MASTER MONITOR] THIS IS MONITOR ADDR PHASE SENDING TRANSECTION
# ------------------------------------------------------------------
# NAME           TYPE        SUB-TYPE     SIZE          VALUE
# ------------------------------------------------------------------
# HWRITE        integral      binary        1          0
# HADDR         integral      hex          32         00000001
# HWDATA        integral      hex          32         '{726372107}
# hburst_type   hburst_enum   enum          3          INCR
# hsize_type    hsize_enum    enum          3          BYTE
# htrans_type   htrans_enum   enum          3          '{NONSEQ}
# HRDATA        integral      hex          32         0000de00
# hresp_type    htrans_enum   enum          2          OKAY
# hready        hready        bit           1          1
# -------------------------------------------------------------------
# UVM_INFO ../mas_agent/ahb_master_checker.sv(126) @ 725: uvm_test_top.env_h.ahb_uvc_h[0].mas_agent_h[0].mas_chk_h [MASTER CHECKER] THIS IS CHECKER RECEIVED TRANSECTION
# ------------------------------------------------------------------
# NAME           TYPE        SUB-TYPE     SIZE          VALUE
# ------------------------------------------------------------------
# HWRITE        integral      binary        1          0
# HADDR         integral      hex          32         00000001
# HWDATA        integral      hex          32         '{726372107}
# hburst_type   hburst_enum   enum          3          INCR
# hsize_type    hsize_enum    enum          3          BYTE
# htrans_type   htrans_enum   enum          3          '{NONSEQ}
# HRDATA        integral      hex          32         0000de00
# hresp_type    htrans_enum   enum          2          OKAY
# hready        hready        bit           1          1
# -------------------------------------------------------------------
# UVM_INFO ../mas_agent/ahb_master_checker.sv(145) @ 725: uvm_test_top.env_h.ahb_uvc_h[0].mas_agent_h[0].mas_chk_h [ahb_mas_checker] size of check trans q = 2 | res = 2
# UVM_INFO ../slv_agent/ahb_slave_driver.sv(62) @ 725: uvm_test_top.env_h.ahb_uvc_h[1].slv_agent_h[0].slv_drv_h [SLAVE_DRIVER] THIS IS BEFOR GET NEXT ITEM
# UVM_INFO ../slv_agent/ahb_slave_monitor.sv(161) @ 725: uvm_test_top.env_h.ahb_uvc_h[1].slv_agent_h[0].slv_mon_h [SLAVE MONITOR] THIS IS INSIDE DATA PHASE OF SLAVE MONITOR
# UVM_INFO ../slv_agent/ahb_slave_monitor.sv(167) @ 725: uvm_test_top.env_h.ahb_uvc_h[1].slv_agent_h[0].slv_mon_h [SLAVE MONITOR] THIS IS SLAVE SENDING TRANSECTION TO SCOREBOARD AND SEQUENCE
# ------------------------------------------------------------------
# NAME           TYPE        SUB-TYPE     SIZE          VALUE
# ------------------------------------------------------------------
# HWRITE       integral      binary        1          1
# HADDR        integral      hex          32         00000001
# HWDATA       integral      hex          32         726372107
# hburst_type  hburst_enum   enum          3          INCR
# hsize_type   hsize_enum    enum          3          BYTE
# htrans_type  htrans_enum   enum          1          NONSEQ
# HRDATA       integral      hex          32         0000de00
# hresp_type   hresp_enum    enum          1          OKAY
# HREADYOUT    integral      binary        1          0
# -------------------------------------------------------------------
# UVM_INFO ../slv_agent/ahb_slave_monitor.sv(121) @ 725: uvm_test_top.env_h.ahb_uvc_h[1].slv_agent_h[0].slv_mon_h [SLAVE MONITOR] THIS IS INSIDE ADDR PHASE OF SLAVE MONITOR
# UVM_INFO ../slv_agent/ahb_slave_monitor.sv(129) @ 725: uvm_test_top.env_h.ahb_uvc_h[1].slv_agent_h[0].slv_mon_h [SLAVE MONITOR] THIS IS SLAVE SENDING TRANSECTION TO SEQUENCE
# ------------------------------------------------------------------
# NAME           TYPE        SUB-TYPE     SIZE          VALUE
# ------------------------------------------------------------------
# HWRITE       integral      binary        1          0
# HADDR        integral      hex          32         00000001
# HWDATA       integral      hex          32         726372107
# hburst_type  hburst_enum   enum          3          INCR
# hsize_type   hsize_enum    enum          3          BYTE
# htrans_type  htrans_enum   enum          1          NONSEQ
# HRDATA       integral      hex          32         0000de00
# hresp_type   hresp_enum    enum          1          OKAY
# HREADYOUT    integral      binary        1          0
# -------------------------------------------------------------------
# UVM_INFO ../seq/ahb_slave_mem_response_sequence.sv(53) @ 725: uvm_test_top.env_h.ahb_uvc_h[1].slv_agent_h[0].slv_seqr_h@@<unknown> [SLAVE SEQUENCE] This Is Slave Sequence Collected Transaction
# ------------------------------------------------------------------
# NAME           TYPE        SUB-TYPE     SIZE          VALUE
# ------------------------------------------------------------------
# HWRITE       integral      binary        1          0
# HADDR        integral      hex          32         00000001
# HWDATA       integral      hex          32         726372107
# hburst_type  hburst_enum   enum          3          INCR
# hsize_type   hsize_enum    enum          3          BYTE
# htrans_type  htrans_enum   enum          1          NONSEQ
# HRDATA       integral      hex          32         0000de00
# hresp_type   hresp_enum    enum          1          OKAY
# HREADYOUT    integral      binary        1          0
# -------------------------------------------------------------------
# UVM_INFO ../seq/ahb_base_slave_sequence.sv(118) @ 725: uvm_test_top.env_h.ahb_uvc_h[1].slv_agent_h[0].slv_seqr_h@@<unknown> [SLAVE SEQUENCE] This Is Inside Write Transfer
# UVM_INFO ../seq/ahb_base_slave_sequence.sv(129) @ 725: uvm_test_top.env_h.ahb_uvc_h[1].slv_agent_h[0].slv_seqr_h@@<unknown> [SLAVE SEQUENCE] This Is Slave Sending Transfer To Sequencer
# ------------------------------------------------------------------
# NAME           TYPE        SUB-TYPE     SIZE          VALUE
# ------------------------------------------------------------------
# HWRITE       integral      binary        1          0
# HADDR        integral      hex          32         00000001
# HWDATA       integral      hex          32         726372107
# hburst_type  hburst_enum   enum          3          INCR
# hsize_type   hsize_enum    enum          3          BYTE
# htrans_type  htrans_enum   enum          1          NONSEQ
# HRDATA       integral      hex          32         0000de00
# hresp_type   hresp_enum    enum          1          OKAY
# HREADYOUT    integral      binary        1          0
# -------------------------------------------------------------------
# UVM_INFO ../seq/ahb_base_slave_sequence.sv(71) @ 725: uvm_test_top.env_h.ahb_uvc_h[1].slv_agent_h[0].slv_seqr_h@@<unknown> [SLAVE SEQUENCE] This Is Read Transfer
# UVM_INFO ../seq/ahb_base_slave_sequence.sv(83) @ 725: uvm_test_top.env_h.ahb_uvc_h[1].slv_agent_h[0].slv_seqr_h@@<unknown> [SLAVE SEQUENCE] This Slave Sending Transaction To The Sequencer
# ------------------------------------------------------------------
# NAME           TYPE        SUB-TYPE     SIZE          VALUE
# ------------------------------------------------------------------
# HWRITE       integral      binary        1          0
# HADDR        integral      hex          32         00000001
# HWDATA       integral      hex          32         726372107
# hburst_type  hburst_enum   enum          3          INCR
# hsize_type   hsize_enum    enum          3          BYTE
# htrans_type  htrans_enum   enum          1          NONSEQ
# HRDATA       integral      hex          32         00008f00
# hresp_type   hresp_enum    enum          1          OKAY
# HREADYOUT    integral      binary        1          0
# -------------------------------------------------------------------
# UVM_INFO ../slv_agent/ahb_slave_driver.sv(89) @ 725: uvm_test_top.env_h.ahb_uvc_h[1].slv_agent_h[0].slv_drv_h [SLAVE DRIVER] THIS IS INSIDE SLAVE DRIVER
# ------------------------------------------------------------------
# NAME           TYPE        SUB-TYPE     SIZE          VALUE
# ------------------------------------------------------------------
# HWRITE       integral      binary        1          0
# HADDR        integral      hex          32         00000001
# HWDATA       integral      hex          32         726372107
# hburst_type  hburst_enum   enum          3          INCR
# hsize_type   hsize_enum    enum          3          BYTE
# htrans_type  htrans_enum   enum          1          NONSEQ
# HRDATA       integral      hex          32         00008f00
# hresp_type   hresp_enum    enum          1          OKAY
# HREADYOUT    integral      binary        1          1
# -------------------------------------------------------------------
# UVM_INFO ../slv_agent/ahb_slave_driver.sv(121) @ 725: uvm_test_top.env_h.ahb_uvc_h[1].slv_agent_h[0].slv_drv_h [SLAVE DRIVER] THIS IS INSIDE READ OKAY RESP
# UVM_INFO ../mas_agent/ahb_master_driver.sv(107) @ 725: uvm_test_top.env_h.ahb_uvc_h[0].mas_agent_h[0].mas_drv_h [MASTER DRIVER] THIS IS INSIDE MASTER DRIVER
# ------------------------------------------------------------------
# NAME           TYPE        SUB-TYPE     SIZE          VALUE
# ------------------------------------------------------------------
# HWRITE        integral      binary        1          1
# HADDR         integral      hex          32         00000001
# HWDATA        integral      hex          32         '{4024226715}
# hburst_type   hburst_enum   enum          3          INCR
# hsize_type    hsize_enum    enum          3          BYTE
# htrans_type   htrans_enum   enum          3          '{NONSEQ}
# HRDATA        integral      hex          32         00000000
# hresp_type    htrans_enum   enum          2          OKAY
# hready        hready        bit           1          0
# -------------------------------------------------------------------
# UVM_INFO ../mas_agent/ahb_master_driver.sv(497) @ 775: uvm_test_top.env_h.ahb_uvc_h[0].mas_agent_h[0].mas_drv_h [uvm_driver #(REQ,RSP)] DATA PHASE!!size of queue=========='{}
# UVM_INFO ../mas_agent/ahb_master_driver.sv(504) @ 775: uvm_test_top.env_h.ahb_uvc_h[0].mas_agent_h[0].mas_drv_h [uvm_driver #(REQ,RSP)] DATA PHASE!!going to be end!!
# UVM_INFO ../mas_agent/ahb_master_driver.sv(421) @ 775: uvm_test_top.env_h.ahb_uvc_h[0].mas_agent_h[0].mas_drv_h [uvm_driver #(REQ,RSP)] ADDR PHASE!!going to be end!!
# UVM_INFO ../mas_agent/ahb_master_monitor.sv(138) @ 775: uvm_test_top.env_h.ahb_uvc_h[0].mas_agent_h[0].mas_mon_h [MASTER MONITOR] INSIDE DATA PHASE OF MAS MON
# UVM_INFO ../mas_agent/ahb_master_monitor.sv(144) @ 775: uvm_test_top.env_h.ahb_uvc_h[0].mas_agent_h[0].mas_mon_h [MASTER MONITOR] THIS IS MONITOR DATA_PHASE SENDING TRANSECTION
# ------------------------------------------------------------------
# NAME           TYPE        SUB-TYPE     SIZE          VALUE
# ------------------------------------------------------------------
# HWRITE        integral      binary        1          0
# HADDR         integral      hex          32         00000001
# HWDATA        integral      hex          32         '{726372107}
# hburst_type   hburst_enum   enum          3          INCR
# hsize_type    hsize_enum    enum          3          BYTE
# htrans_type   htrans_enum   enum          3          '{NONSEQ}
# HRDATA        integral      hex          32         00008f00
# hresp_type    htrans_enum   enum          2          OKAY
# hready        hready        bit           1          1
# -------------------------------------------------------------------
# UVM_INFO ../mas_agent/ahb_master_monitor.sv(114) @ 775: uvm_test_top.env_h.ahb_uvc_h[0].mas_agent_h[0].mas_mon_h [MASTER MONITOR] INSIDE ADDR PHASE OF MAS MON
# UVM_INFO ../mas_agent/ahb_master_monitor.sv(122) @ 775: uvm_test_top.env_h.ahb_uvc_h[0].mas_agent_h[0].mas_mon_h [MASTER MONITOR] THIS IS MONITOR ADDR PHASE SENDING TRANSECTION
# ------------------------------------------------------------------
# NAME           TYPE        SUB-TYPE     SIZE          VALUE
# ------------------------------------------------------------------
