Command: /remote/vgvips1/globaluser/akashs/FALCON-C-SoC-PROJECT/cortexm3_soc/top/sim/./simv -l logs/sim_ahb_base_test_1.log +UVM_TESTNAME=ahb_base_test
Chronologic VCS simulator copyright 1991-2020
Contains Synopsys proprietary information.
Compiler version Q-2020.03_Full64; Runtime version Q-2020.03_Full64;  May  8 13:22 2026
UVM_INFO /global/apps/vcs_2020.03/vcs/Q-2020.03/etc/uvm-1.2/base/uvm_root.svh(412) @ 0: reporter [UVM/RELNOTES] 
----------------------------------------------------------------
UVM-1.2.Synopsys
(C) 2007-2014 Mentor Graphics Corporation
(C) 2007-2014 Cadence Design Systems, Inc.
(C) 2006-2014 Synopsys, Inc.
(C) 2011-2013 Cypress Semiconductor Corp.
(C) 2013-2014 NVIDIA Corporation
----------------------------------------------------------------

  ***********       IMPORTANT RELEASE NOTES         ************

  You are using a version of the UVM library that has been compiled
  with `UVM_NO_DEPRECATED undefined.
  See http://www.eda.org/svdb/view.php?id=3313 for more details.

  You are using a version of the UVM library that has been compiled
  with `UVM_OBJECT_DO_NOT_NEED_CONSTRUCTOR undefined.
  See http://www.eda.org/svdb/view.php?id=3770 for more details.

      (Specify +UVM_NO_RELNOTES to turn off this notice)

*Verdi* Loading libsscore_vcs202003.so
FSDB Dumper for VCS, Release Verdi_Q-2020.03, Linux x86_64/64bit, 02/09/2020
(C) 1996 - 2020 by Synopsys, Inc.
*Verdi* FSDB WARNING: The FSDB file already exists. Overwriting the FSDB file may crash the programs that are using this file.
*Verdi* : Create FSDB file 'test_top.fsdb'
*Verdi* : Begin traversing the scopes, layer (0).
*Verdi* : End of traversing.
*Verdi* : Begin traversing the MDAs, layer (0).
*Verdi* : Enable +mda and +packedmda dumping.
*Verdi* : End of traversing the MDAs.
UVM_INFO @ 0: reporter [RNTST] Running test ahb_base_test...
-----------------------------------------------------------------------
Name                 Type                             Size  Value      
-----------------------------------------------------------------------
env_cfg              ahb_env_config                   -     @421       
  has_scoreboard     integral                         1     'h0        
  has_coverage       integral                         1     'h0        
  no_of_uvc          integral                         32    'h1        
  uvc_cfg            da(object)                       1     -          
    [0]              ahb_uvc_config                   -     @422       
      no_of_masters  integral                         32    'h5        
      no_of_slaves   integral                         32    'h5        
      master_cfg     da(object)                       5     -          
        [0]          ahb_mas_agent_cfg                -     @423       
          is_active  uvm_active_passive_enum          1     UVM_PASSIVE
          is_enable  uvm_checker_enable_disable_enum  1     DISABLE    
        [1]          ahb_mas_agent_cfg                -     @424       
          is_active  uvm_active_passive_enum          1     UVM_PASSIVE
          is_enable  uvm_checker_enable_disable_enum  1     DISABLE    
        [2]          ahb_mas_agent_cfg                -     @425       
          is_active  uvm_active_passive_enum          1     UVM_PASSIVE
          is_enable  uvm_checker_enable_disable_enum  1     DISABLE    
        [3]          ahb_mas_agent_cfg                -     @426       
          is_active  uvm_active_passive_enum          1     UVM_PASSIVE
          is_enable  uvm_checker_enable_disable_enum  1     DISABLE    
        [4]          ahb_mas_agent_cfg                -     @427       
          is_active  uvm_active_passive_enum          1     UVM_PASSIVE
          is_enable  uvm_checker_enable_disable_enum  1     DISABLE    
      slave_cfg      da(object)                       5     -          
        [0]          ahb_slv_agent_cfg                -     @428       
          is_active  uvm_active_passive_enum          1     UVM_PASSIVE
          is_enable  uvm_checker_enable_disable_enum  1     DISABLE    
        [1]          ahb_slv_agent_cfg                -     @429       
          is_active  uvm_active_passive_enum          1     UVM_PASSIVE
          is_enable  uvm_checker_enable_disable_enum  1     DISABLE    
        [2]          ahb_slv_agent_cfg                -     @430       
          is_active  uvm_active_passive_enum          1     UVM_PASSIVE
          is_enable  uvm_checker_enable_disable_enum  1     DISABLE    
        [3]          ahb_slv_agent_cfg                -     @431       
          is_active  uvm_active_passive_enum          1     UVM_PASSIVE
          is_enable  uvm_checker_enable_disable_enum  1     DISABLE    
        [4]          ahb_slv_agent_cfg                -     @432       
          is_active  uvm_active_passive_enum          1     UVM_PASSIVE
          is_enable  uvm_checker_enable_disable_enum  1     DISABLE    
-----------------------------------------------------------------------
UVM_INFO /global/apps/vcs_2020.03/vcs/Q-2020.03/etc/uvm-1.2/base/uvm_root.svh(675) @ 0: reporter [UVMTOP] UVM testbench topology:
-----------------------------------------------------------------
Name                       Type                       Size  Value
-----------------------------------------------------------------
uvm_test_top               ahb_base_test              -     @407 
  env_h                    ahb_env                    -     @433 
    ahb_sb_h               ahb_sb                     -     @466 
      ahb_sram_ai_sb       uvm_analysis_imp_ahb_sram  -     @588 
      mas_ai_sb_m0         uvm_analysis_imp_mas_m0    -     @498 
      mas_ai_sb_m1         uvm_analysis_imp_mas_m1    -     @508 
      mas_ai_sb_m2         uvm_analysis_imp_mas_m2    -     @518 
      mas_ai_sb_m3         uvm_analysis_imp_mas_m3    -     @528 
      slv_ai_sb_s0         uvm_analysis_imp_slv_s0    -     @538 
      slv_ai_sb_s1         uvm_analysis_imp_slv_s1    -     @548 
      slv_ai_sb_s3         uvm_analysis_imp_slv_s3    -     @558 
      slv_ai_sb_s4         uvm_analysis_imp_slv_s4    -     @568 
      slv_ai_sb_s5         uvm_analysis_imp_slv_s5    -     @578 
    ahb_score              ahb_sram_sb                -     @448 
      item_collected_imp   uvm_analysis_imp           -     @599 
    ahb_uvc_h[0]           ahb_uvc                    -     @457 
      mas_agent_h[0]       uvm_agent                  -     @610 
        mas_mon_h          uvm_monitor                -     @717 
          mas_ap_ch        uvm_analysis_port          -     @736 
          mas_ap_mon       uvm_analysis_port          -     @726 
          mas_mon_cc       uvm_analysis_port          -     @746 
      mas_agent_h[1]       uvm_agent                  -     @619 
        mas_mon_h          uvm_monitor                -     @759 
          mas_ap_ch        uvm_analysis_port          -     @778 
          mas_ap_mon       uvm_analysis_port          -     @768 
          mas_mon_cc       uvm_analysis_port          -     @788 
      mas_agent_h[2]       uvm_agent                  -     @628 
        mas_mon_h          uvm_monitor                -     @801 
          mas_ap_ch        uvm_analysis_port          -     @820 
          mas_ap_mon       uvm_analysis_port          -     @810 
          mas_mon_cc       uvm_analysis_port          -     @830 
      mas_agent_h[3]       uvm_agent                  -     @637 
        mas_mon_h          uvm_monitor                -     @843 
          mas_ap_ch        uvm_analysis_port          -     @862 
          mas_ap_mon       uvm_analysis_port          -     @852 
          mas_mon_cc       uvm_analysis_port          -     @872 
      mas_agent_h[4]       uvm_agent                  -     @646 
        mas_mon_h          uvm_monitor                -     @885 
          mas_ap_ch        uvm_analysis_port          -     @904 
          mas_ap_mon       uvm_analysis_port          -     @894 
          mas_mon_cc       uvm_analysis_port          -     @914 
      slv_agent_h[0]       uvm_agent                  -     @655 
        slv_mon_h          uvm_monitor                -     @927 
          slv_ap_mon       uvm_analysis_port          -     @936 
          slv_mon_cc       uvm_analysis_port          -     @956 
          slv_mon_sb       uvm_analysis_port          -     @946 
      slv_agent_h[1]       uvm_agent                  -     @664 
        slv_mon_h          uvm_monitor                -     @969 
          slv_ap_mon       uvm_analysis_port          -     @978 
          slv_mon_cc       uvm_analysis_port          -     @998 
          slv_mon_sb       uvm_analysis_port          -     @988 
      slv_agent_h[2]       uvm_agent                  -     @673 
        slv_mon_h          uvm_monitor                -     @1011
          slv_ap_mon       uvm_analysis_port          -     @1020
          slv_mon_cc       uvm_analysis_port          -     @1040
          slv_mon_sb       uvm_analysis_port          -     @1030
      slv_agent_h[3]       uvm_agent                  -     @682 
        slv_mon_h          uvm_monitor                -     @1053
          slv_ap_mon       uvm_analysis_port          -     @1062
          slv_mon_cc       uvm_analysis_port          -     @1082
          slv_mon_sb       uvm_analysis_port          -     @1072
      slv_agent_h[4]       uvm_agent                  -     @691 
        slv_mon_h          uvm_monitor                -     @1095
          slv_ap_mon       uvm_analysis_port          -     @1104
          slv_mon_cc       uvm_analysis_port          -     @1124
          slv_mon_sb       uvm_analysis_port          -     @1114
    sram_mon_h             sram_monitor               -     @475 
      item_collected_port  uvm_analysis_port          -     @484 
-----------------------------------------------------------------

UVM_INFO ../tb/ahb_base_test.sv(89) @ 0: uvm_test_top [RESET_INFO] RESET *** CLEARED
UVM_INFO ../../../AHB/slv_agent/ahb_slave_monitor.sv(131) @ 10: uvm_test_top.env_h.ahb_uvc_h[0].slv_agent_h[0].slv_mon_h [SLV_MON] Monitor Reset detected. Pipeline queue cleared.
UVM_INFO ../../../AHB/slv_agent/ahb_slave_monitor.sv(131) @ 10: uvm_test_top.env_h.ahb_uvc_h[0].slv_agent_h[1].slv_mon_h [SLV_MON] Monitor Reset detected. Pipeline queue cleared.
UVM_INFO ../../../AHB/slv_agent/ahb_slave_monitor.sv(131) @ 10: uvm_test_top.env_h.ahb_uvc_h[0].slv_agent_h[2].slv_mon_h [SLV_MON] Monitor Reset detected. Pipeline queue cleared.
UVM_INFO ../../../AHB/slv_agent/ahb_slave_monitor.sv(131) @ 10: uvm_test_top.env_h.ahb_uvc_h[0].slv_agent_h[3].slv_mon_h [SLV_MON] Monitor Reset detected. Pipeline queue cleared.
UVM_INFO ../../../AHB/slv_agent/ahb_slave_monitor.sv(131) @ 10: uvm_test_top.env_h.ahb_uvc_h[0].slv_agent_h[4].slv_mon_h [SLV_MON] Monitor Reset detected. Pipeline queue cleared.
UVM_INFO ../../../AHB/mas_agent/ahb_master_monitor.sv(138) @ 10: uvm_test_top.env_h.ahb_uvc_h[0].mas_agent_h[0].mas_mon_h [MAS_MON] Monitor Reset detected.
UVM_INFO ../../../AHB/mas_agent/ahb_master_monitor.sv(138) @ 10: uvm_test_top.env_h.ahb_uvc_h[0].mas_agent_h[1].mas_mon_h [MAS_MON] Monitor Reset detected.
UVM_INFO ../../../AHB/mas_agent/ahb_master_monitor.sv(138) @ 10: uvm_test_top.env_h.ahb_uvc_h[0].mas_agent_h[2].mas_mon_h [MAS_MON] Monitor Reset detected.
UVM_INFO ../../../AHB/mas_agent/ahb_master_monitor.sv(138) @ 10: uvm_test_top.env_h.ahb_uvc_h[0].mas_agent_h[3].mas_mon_h [MAS_MON] Monitor Reset detected.
UVM_INFO ../../../AHB/mas_agent/ahb_master_monitor.sv(138) @ 10: uvm_test_top.env_h.ahb_uvc_h[0].mas_agent_h[4].mas_mon_h [MAS_MON] Monitor Reset detected.
UVM_INFO ../../../AHB/mas_agent/ahb_master_monitor.sv(138) @ 30: uvm_test_top.env_h.ahb_uvc_h[0].mas_agent_h[0].mas_mon_h [MAS_MON] Monitor Reset detected.
UVM_INFO ../../../AHB/mas_agent/ahb_master_monitor.sv(138) @ 30: uvm_test_top.env_h.ahb_uvc_h[0].mas_agent_h[1].mas_mon_h [MAS_MON] Monitor Reset detected.
UVM_INFO ../../../AHB/mas_agent/ahb_master_monitor.sv(138) @ 30: uvm_test_top.env_h.ahb_uvc_h[0].mas_agent_h[2].mas_mon_h [MAS_MON] Monitor Reset detected.
UVM_INFO ../../../AHB/mas_agent/ahb_master_monitor.sv(138) @ 30: uvm_test_top.env_h.ahb_uvc_h[0].mas_agent_h[3].mas_mon_h [MAS_MON] Monitor Reset detected.
UVM_INFO ../../../AHB/mas_agent/ahb_master_monitor.sv(138) @ 30: uvm_test_top.env_h.ahb_uvc_h[0].mas_agent_h[4].mas_mon_h [MAS_MON] Monitor Reset detected.
UVM_INFO ../../../AHB/mas_agent/ahb_master_monitor.sv(138) @ 50: uvm_test_top.env_h.ahb_uvc_h[0].mas_agent_h[0].mas_mon_h [MAS_MON] Monitor Reset detected.
UVM_INFO ../../../AHB/mas_agent/ahb_master_monitor.sv(138) @ 50: uvm_test_top.env_h.ahb_uvc_h[0].mas_agent_h[1].mas_mon_h [MAS_MON] Monitor Reset detected.
UVM_INFO ../../../AHB/mas_agent/ahb_master_monitor.sv(138) @ 50: uvm_test_top.env_h.ahb_uvc_h[0].mas_agent_h[2].mas_mon_h [MAS_MON] Monitor Reset detected.
UVM_INFO ../../../AHB/mas_agent/ahb_master_monitor.sv(138) @ 50: uvm_test_top.env_h.ahb_uvc_h[0].mas_agent_h[3].mas_mon_h [MAS_MON] Monitor Reset detected.
UVM_INFO ../../../AHB/mas_agent/ahb_master_monitor.sv(138) @ 50: uvm_test_top.env_h.ahb_uvc_h[0].mas_agent_h[4].mas_mon_h [MAS_MON] Monitor Reset detected.
UVM_INFO ../../../AHB/mas_agent/ahb_master_monitor.sv(138) @ 70: uvm_test_top.env_h.ahb_uvc_h[0].mas_agent_h[0].mas_mon_h [MAS_MON] Monitor Reset detected.
UVM_INFO ../../../AHB/mas_agent/ahb_master_monitor.sv(138) @ 70: uvm_test_top.env_h.ahb_uvc_h[0].mas_agent_h[1].mas_mon_h [MAS_MON] Monitor Reset detected.
UVM_INFO ../../../AHB/mas_agent/ahb_master_monitor.sv(138) @ 70: uvm_test_top.env_h.ahb_uvc_h[0].mas_agent_h[2].mas_mon_h [MAS_MON] Monitor Reset detected.
UVM_INFO ../../../AHB/mas_agent/ahb_master_monitor.sv(138) @ 70: uvm_test_top.env_h.ahb_uvc_h[0].mas_agent_h[3].mas_mon_h [MAS_MON] Monitor Reset detected.
UVM_INFO ../../../AHB/mas_agent/ahb_master_monitor.sv(138) @ 70: uvm_test_top.env_h.ahb_uvc_h[0].mas_agent_h[4].mas_mon_h [MAS_MON] Monitor Reset detected.
UVM_INFO ../../../AHB/mas_agent/ahb_master_monitor.sv(138) @ 90: uvm_test_top.env_h.ahb_uvc_h[0].mas_agent_h[0].mas_mon_h [MAS_MON] Monitor Reset detected.
UVM_INFO ../../../AHB/mas_agent/ahb_master_monitor.sv(138) @ 90: uvm_test_top.env_h.ahb_uvc_h[0].mas_agent_h[1].mas_mon_h [MAS_MON] Monitor Reset detected.
UVM_INFO ../../../AHB/mas_agent/ahb_master_monitor.sv(138) @ 90: uvm_test_top.env_h.ahb_uvc_h[0].mas_agent_h[2].mas_mon_h [MAS_MON] Monitor Reset detected.
UVM_INFO ../../../AHB/mas_agent/ahb_master_monitor.sv(138) @ 90: uvm_test_top.env_h.ahb_uvc_h[0].mas_agent_h[3].mas_mon_h [MAS_MON] Monitor Reset detected.
UVM_INFO ../../../AHB/mas_agent/ahb_master_monitor.sv(138) @ 90: uvm_test_top.env_h.ahb_uvc_h[0].mas_agent_h[4].mas_mon_h [MAS_MON] Monitor Reset detected.
UVM_INFO ../../../AHB/slv_agent/ahb_slave_monitor.sv(120) @ 150: uvm_test_top.env_h.ahb_uvc_h[0].slv_agent_h[0].slv_mon_h [uvm_test_top.env_h.ahb_uvc_h[0].slv_agent_h[0].slv_mon_h] SLAVE MONITOR ADDRESS PHASE
------------------------------------------------------------------
NAME           TYPE        SUB-TYPE     SIZE          VALUE
------------------------------------------------------------------
HWRITE       integral      hex           1          0
HADDR        integral      hex          32         00000000
HWDATA       integral      hex          32         00000000
hburst_type  hburst_enum   enum          3          SINGLE
hsize_type   hsize_enum    enum          3          WORD
htrans_type  htrans_enum   enum          1          NONSEQ
HRDATA       integral      hex          00000020          0
hresp_type   hresp_enum    enum          1          OKAY
HREADYOUT    integral      hex           1          0
-------------------------------------------------------------------
UVM_INFO ../../../AHB/slv_agent/ahb_slave_monitor.sv(90) @ 190: uvm_test_top.env_h.ahb_uvc_h[0].slv_agent_h[0].slv_mon_h [uvm_test_top.env_h.ahb_uvc_h[0].slv_agent_h[0].slv_mon_h] SLAVE MONITOR DATA PHASE
------------------------------------------------------------------
NAME           TYPE        SUB-TYPE     SIZE          VALUE
------------------------------------------------------------------
HWRITE       integral      hex           1          0
HADDR        integral      hex          32         00000000
HWDATA       integral      hex          32         00000000
hburst_type  hburst_enum   enum          3          SINGLE
hsize_type   hsize_enum    enum          3          WORD
htrans_type  htrans_enum   enum          1          NONSEQ
HRDATA       integral      hex          00000020          20000401
hresp_type   hresp_enum    enum          1          OKAY
HREADYOUT    integral      hex           1          0
-------------------------------------------------------------------
UVM_INFO ../../../AHB/slv_agent/ahb_slave_monitor.sv(120) @ 190: uvm_test_top.env_h.ahb_uvc_h[0].slv_agent_h[0].slv_mon_h [uvm_test_top.env_h.ahb_uvc_h[0].slv_agent_h[0].slv_mon_h] SLAVE MONITOR ADDRESS PHASE
------------------------------------------------------------------
NAME           TYPE        SUB-TYPE     SIZE          VALUE
------------------------------------------------------------------
HWRITE       integral      hex           1          0
HADDR        integral      hex          32         00000004
HWDATA       integral      hex          32         00000000
hburst_type  hburst_enum   enum          3          SINGLE
hsize_type   hsize_enum    enum          3          WORD
htrans_type  htrans_enum   enum          1          NONSEQ
HRDATA       integral      hex          00000020          0
hresp_type   hresp_enum    enum          1          OKAY
HREADYOUT    integral      hex           1          0
-------------------------------------------------------------------
UVM_INFO ../../../AHB/mas_agent/ahb_master_monitor.sv(128) @ 190: uvm_test_top.env_h.ahb_uvc_h[0].mas_agent_h[0].mas_mon_h [uvm_test_top.env_h.ahb_uvc_h[0].mas_agent_h[0].mas_mon_h] MASTER MONITOR
------------------------------------------------------------------
NAME           TYPE        SUB-TYPE     SIZE          VALUE
------------------------------------------------------------------
HWRITE        integral      binary        1          0
HADDR         integral      hex          32         00000000
HWDATA        integral      hex          32         '{'h0} 
hburst_type   hburst_enum   enum          3          SINGLE
hsize_type    hsize_enum    enum          3          WORD
htrans_type   htrans_enum   enum          3          '{NONSEQ} 
HRDATA        integral      hex          32         20000401
hresp_type    htrans_enum   enum          2          OKAY
hready        hready        bit           1          0
-------------------------------------------------------------------
UVM_INFO ../../../AHB/slv_agent/ahb_slave_monitor.sv(90) @ 210: uvm_test_top.env_h.ahb_uvc_h[0].slv_agent_h[0].slv_mon_h [uvm_test_top.env_h.ahb_uvc_h[0].slv_agent_h[0].slv_mon_h] SLAVE MONITOR DATA PHASE
------------------------------------------------------------------
NAME           TYPE        SUB-TYPE     SIZE          VALUE
------------------------------------------------------------------
HWRITE       integral      hex           1          0
HADDR        integral      hex          32         00000004
HWDATA       integral      hex          32         00000000
hburst_type  hburst_enum   enum          3          SINGLE
hsize_type   hsize_enum    enum          3          WORD
htrans_type  htrans_enum   enum          1          NONSEQ
HRDATA       integral      hex          00000020          b5
hresp_type   hresp_enum    enum          1          OKAY
HREADYOUT    integral      hex           1          0
-------------------------------------------------------------------
UVM_INFO ../../../AHB/mas_agent/ahb_master_monitor.sv(128) @ 210: uvm_test_top.env_h.ahb_uvc_h[0].mas_agent_h[0].mas_mon_h [uvm_test_top.env_h.ahb_uvc_h[0].mas_agent_h[0].mas_mon_h] MASTER MONITOR
------------------------------------------------------------------
NAME           TYPE        SUB-TYPE     SIZE          VALUE
------------------------------------------------------------------
HWRITE        integral      binary        1          0
HADDR         integral      hex          32         00000004
HWDATA        integral      hex          32         '{'h0} 
hburst_type   hburst_enum   enum          3          SINGLE
hsize_type    hsize_enum    enum          3          WORD
htrans_type   htrans_enum   enum          3          '{NONSEQ} 
HRDATA        integral      hex          32         b5
hresp_type    htrans_enum   enum          2          OKAY
hready        hready        bit           1          0
-------------------------------------------------------------------
UVM_INFO ../../../AHB/slv_agent/ahb_slave_monitor.sv(120) @ 250: uvm_test_top.env_h.ahb_uvc_h[0].slv_agent_h[0].slv_mon_h [uvm_test_top.env_h.ahb_uvc_h[0].slv_agent_h[0].slv_mon_h] SLAVE MONITOR ADDRESS PHASE
------------------------------------------------------------------
NAME           TYPE        SUB-TYPE     SIZE          VALUE
------------------------------------------------------------------
HWRITE       integral      hex           1          0
HADDR        integral      hex          32         000000b4
HWDATA       integral      hex          32         00000000
hburst_type  hburst_enum   enum          3          SINGLE
hsize_type   hsize_enum    enum          3          WORD
htrans_type  htrans_enum   enum          1          NONSEQ
HRDATA       integral      hex          00000020          0
hresp_type   hresp_enum    enum          1          OKAY
HREADYOUT    integral      hex           1          0
-------------------------------------------------------------------
UVM_INFO ../../../AHB/slv_agent/ahb_slave_monitor.sv(90) @ 270: uvm_test_top.env_h.ahb_uvc_h[0].slv_agent_h[0].slv_mon_h [uvm_test_top.env_h.ahb_uvc_h[0].slv_agent_h[0].slv_mon_h] SLAVE MONITOR DATA PHASE
------------------------------------------------------------------
NAME           TYPE        SUB-TYPE     SIZE          VALUE
------------------------------------------------------------------
HWRITE       integral      hex           1          0
HADDR        integral      hex          32         000000b4
HWDATA       integral      hex          32         00000000
hburst_type  hburst_enum   enum          3          SINGLE
hsize_type   hsize_enum    enum          3          WORD
htrans_type  htrans_enum   enum          1          NONSEQ
HRDATA       integral      hex          00000020          47004800
hresp_type   hresp_enum    enum          1          OKAY
HREADYOUT    integral      hex           1          0
-------------------------------------------------------------------
UVM_INFO ../../../AHB/slv_agent/ahb_slave_monitor.sv(120) @ 270: uvm_test_top.env_h.ahb_uvc_h[0].slv_agent_h[0].slv_mon_h [uvm_test_top.env_h.ahb_uvc_h[0].slv_agent_h[0].slv_mon_h] SLAVE MONITOR ADDRESS PHASE
------------------------------------------------------------------
NAME           TYPE        SUB-TYPE     SIZE          VALUE
------------------------------------------------------------------
HWRITE       integral      hex           1          0
HADDR        integral      hex          32         000000b8
HWDATA       integral      hex          32         00000000
hburst_type  hburst_enum   enum          3          SINGLE
hsize_type   hsize_enum    enum          3          WORD
htrans_type  htrans_enum   enum          1          NONSEQ
HRDATA       integral      hex          00000020          0
hresp_type   hresp_enum    enum          1          OKAY
HREADYOUT    integral      hex           1          0
-------------------------------------------------------------------
UVM_INFO ../../../AHB/mas_agent/ahb_master_monitor.sv(128) @ 270: uvm_test_top.env_h.ahb_uvc_h[0].mas_agent_h[0].mas_mon_h [uvm_test_top.env_h.ahb_uvc_h[0].mas_agent_h[0].mas_mon_h] MASTER MONITOR
------------------------------------------------------------------
NAME           TYPE        SUB-TYPE     SIZE          VALUE
------------------------------------------------------------------
HWRITE        integral      binary        1          0
HADDR         integral      hex          32         000000b4
HWDATA        integral      hex          32         '{'h0} 
hburst_type   hburst_enum   enum          3          SINGLE
hsize_type    hsize_enum    enum          3          WORD
htrans_type   htrans_enum   enum          3          '{NONSEQ} 
HRDATA        integral      hex          32         47004800
hresp_type    htrans_enum   enum          2          OKAY
hready        hready        bit           1          0
-------------------------------------------------------------------
UVM_INFO ../../../AHB/slv_agent/ahb_slave_monitor.sv(90) @ 290: uvm_test_top.env_h.ahb_uvc_h[0].slv_agent_h[0].slv_mon_h [uvm_test_top.env_h.ahb_uvc_h[0].slv_agent_h[0].slv_mon_h] SLAVE MONITOR DATA PHASE
------------------------------------------------------------------
NAME           TYPE        SUB-TYPE     SIZE          VALUE
------------------------------------------------------------------
HWRITE       integral      hex           1          0
HADDR        integral      hex          32         000000b8
HWDATA       integral      hex          32         00000000
hburst_type  hburst_enum   enum          3          SINGLE
hsize_type   hsize_enum    enum          3          WORD
htrans_type  htrans_enum   enum          1          NONSEQ
HRDATA       integral      hex          00000020          9
hresp_type   hresp_enum    enum          1          OKAY
HREADYOUT    integral      hex           1          0
-------------------------------------------------------------------
UVM_INFO ../../../AHB/slv_agent/ahb_slave_monitor.sv(120) @ 290: uvm_test_top.env_h.ahb_uvc_h[0].slv_agent_h[0].slv_mon_h [uvm_test_top.env_h.ahb_uvc_h[0].slv_agent_h[0].slv_mon_h] SLAVE MONITOR ADDRESS PHASE
------------------------------------------------------------------
NAME           TYPE        SUB-TYPE     SIZE          VALUE
------------------------------------------------------------------
HWRITE       integral      hex           1          0
HADDR        integral      hex          32         000000bc
HWDATA       integral      hex          32         00000000
hburst_type  hburst_enum   enum          3          SINGLE
hsize_type   hsize_enum    enum          3          WORD
htrans_type  htrans_enum   enum          1          NONSEQ
HRDATA       integral      hex          00000020          0
hresp_type   hresp_enum    enum          1          OKAY
HREADYOUT    integral      hex           1          0
-------------------------------------------------------------------
UVM_INFO ../../../AHB/mas_agent/ahb_master_monitor.sv(128) @ 290: uvm_test_top.env_h.ahb_uvc_h[0].mas_agent_h[0].mas_mon_h [uvm_test_top.env_h.ahb_uvc_h[0].mas_agent_h[0].mas_mon_h] MASTER MONITOR
------------------------------------------------------------------
NAME           TYPE        SUB-TYPE     SIZE          VALUE
------------------------------------------------------------------
HWRITE        integral      binary        1          0
HADDR         integral      hex          32         000000b8
HWDATA        integral      hex          32         '{'h0} 
hburst_type   hburst_enum   enum          3          SINGLE
hsize_type    hsize_enum    enum          3          WORD
htrans_type   htrans_enum   enum          3          '{NONSEQ} 
HRDATA        integral      hex          32         9
hresp_type    htrans_enum   enum          2          OKAY
hready        hready        bit           1          0
-------------------------------------------------------------------
UVM_INFO ../../../AHB/slv_agent/ahb_slave_monitor.sv(90) @ 310: uvm_test_top.env_h.ahb_uvc_h[0].slv_agent_h[0].slv_mon_h [uvm_test_top.env_h.ahb_uvc_h[0].slv_agent_h[0].slv_mon_h] SLAVE MONITOR DATA PHASE
------------------------------------------------------------------
NAME           TYPE        SUB-TYPE     SIZE          VALUE
------------------------------------------------------------------
HWRITE       integral      hex           1          0
HADDR        integral      hex          32         000000bc
HWDATA       integral      hex          32         00000000
hburst_type  hburst_enum   enum          3          SINGLE
hsize_type   hsize_enum    enum          3          WORD
htrans_type  htrans_enum   enum          1          NONSEQ
HRDATA       integral      hex          00000020          4604b510
hresp_type   hresp_enum    enum          1          OKAY
HREADYOUT    integral      hex           1          0
-------------------------------------------------------------------
UVM_INFO ../../../AHB/slv_agent/ahb_slave_monitor.sv(120) @ 310: uvm_test_top.env_h.ahb_uvc_h[0].slv_agent_h[1].slv_mon_h [uvm_test_top.env_h.ahb_uvc_h[0].slv_agent_h[1].slv_mon_h] SLAVE MONITOR ADDRESS PHASE
------------------------------------------------------------------
NAME           TYPE        SUB-TYPE     SIZE          VALUE
------------------------------------------------------------------
HWRITE       integral      hex           1          0
HADDR        integral      hex          32         000000b8
HWDATA       integral      hex          32         00000000
hburst_type  hburst_enum   enum          3          INCR
hsize_type   hsize_enum    enum          3          WORD
htrans_type  htrans_enum   enum          1          NONSEQ
HRDATA       integral      hex          00000020          0
hresp_type   hresp_enum    enum          1          OKAY
HREADYOUT    integral      hex           1          0
-------------------------------------------------------------------
UVM_INFO ../../../AHB/mas_agent/ahb_master_monitor.sv(128) @ 310: uvm_test_top.env_h.ahb_uvc_h[0].mas_agent_h[0].mas_mon_h [uvm_test_top.env_h.ahb_uvc_h[0].mas_agent_h[0].mas_mon_h] MASTER MONITOR
------------------------------------------------------------------
NAME           TYPE        SUB-TYPE     SIZE          VALUE
------------------------------------------------------------------
HWRITE        integral      binary        1          0
HADDR         integral      hex          32         000000bc
HWDATA        integral      hex          32         '{'h0} 
hburst_type   hburst_enum   enum          3          SINGLE
hsize_type    hsize_enum    enum          3          WORD
htrans_type   htrans_enum   enum          3          '{NONSEQ} 
HRDATA        integral      hex          32         4604b510
hresp_type    htrans_enum   enum          2          OKAY
hready        hready        bit           1          0
-------------------------------------------------------------------
UVM_INFO ../../../AHB/slv_agent/ahb_slave_monitor.sv(90) @ 350: uvm_test_top.env_h.ahb_uvc_h[0].slv_agent_h[1].slv_mon_h [uvm_test_top.env_h.ahb_uvc_h[0].slv_agent_h[1].slv_mon_h] SLAVE MONITOR DATA PHASE
------------------------------------------------------------------
NAME           TYPE        SUB-TYPE     SIZE          VALUE
------------------------------------------------------------------
HWRITE       integral      hex           1          0
HADDR        integral      hex          32         000000b8
HWDATA       integral      hex          32         00000000
hburst_type  hburst_enum   enum          3          INCR
hsize_type   hsize_enum    enum          3          WORD
htrans_type  htrans_enum   enum          1          NONSEQ
HRDATA       integral      hex          00000020          9
hresp_type   hresp_enum    enum          1          OKAY
HREADYOUT    integral      hex           1          0
-------------------------------------------------------------------
UVM_INFO ../../../AHB/mas_agent/ahb_master_monitor.sv(128) @ 350: uvm_test_top.env_h.ahb_uvc_h[0].mas_agent_h[0].mas_mon_h [uvm_test_top.env_h.ahb_uvc_h[0].mas_agent_h[0].mas_mon_h] MASTER MONITOR
------------------------------------------------------------------
NAME           TYPE        SUB-TYPE     SIZE          VALUE
------------------------------------------------------------------
HWRITE        integral      binary        1          0
HADDR         integral      hex          32         000000b8
HWDATA        integral      hex          32         '{'h0} 
hburst_type   hburst_enum   enum          3          INCR
hsize_type    hsize_enum    enum          3          WORD
htrans_type   htrans_enum   enum          3          '{NONSEQ} 
HRDATA        integral      hex          32         9
hresp_type    htrans_enum   enum          2          OKAY
hready        hready        bit           1          0
-------------------------------------------------------------------
UVM_INFO ../../../AHB/slv_agent/ahb_slave_monitor.sv(120) @ 370: uvm_test_top.env_h.ahb_uvc_h[0].slv_agent_h[0].slv_mon_h [uvm_test_top.env_h.ahb_uvc_h[0].slv_agent_h[0].slv_mon_h] SLAVE MONITOR ADDRESS PHASE
------------------------------------------------------------------
NAME           TYPE        SUB-TYPE     SIZE          VALUE
------------------------------------------------------------------
HWRITE       integral      hex           1          0
HADDR        integral      hex          32         00000008
HWDATA       integral      hex          32         00000000
hburst_type  hburst_enum   enum          3          SINGLE
hsize_type   hsize_enum    enum          3          WORD
htrans_type  htrans_enum   enum          1          NONSEQ
HRDATA       integral      hex          00000020          0
hresp_type   hresp_enum    enum          1          OKAY
HREADYOUT    integral      hex           1          0
-------------------------------------------------------------------
UVM_INFO ../../../AHB/slv_agent/ahb_slave_monitor.sv(90) @ 410: uvm_test_top.env_h.ahb_uvc_h[0].slv_agent_h[0].slv_mon_h [uvm_test_top.env_h.ahb_uvc_h[0].slv_agent_h[0].slv_mon_h] SLAVE MONITOR DATA PHASE
------------------------------------------------------------------
NAME           TYPE        SUB-TYPE     SIZE          VALUE
------------------------------------------------------------------
HWRITE       integral      hex           1          0
HADDR        integral      hex          32         00000008
HWDATA       integral      hex          32         00000000
hburst_type  hburst_enum   enum          3          SINGLE
hsize_type   hsize_enum    enum          3          WORD
htrans_type  htrans_enum   enum          1          NONSEQ
HRDATA       integral      hex          00000020          f802f000
hresp_type   hresp_enum    enum          1          OKAY
HREADYOUT    integral      hex           1          0
-------------------------------------------------------------------
UVM_INFO ../../../AHB/slv_agent/ahb_slave_monitor.sv(120) @ 410: uvm_test_top.env_h.ahb_uvc_h[0].slv_agent_h[0].slv_mon_h [uvm_test_top.env_h.ahb_uvc_h[0].slv_agent_h[0].slv_mon_h] SLAVE MONITOR ADDRESS PHASE
------------------------------------------------------------------
NAME           TYPE        SUB-TYPE     SIZE          VALUE
------------------------------------------------------------------
HWRITE       integral      hex           1          0
HADDR        integral      hex          32         0000000c
HWDATA       integral      hex          32         00000000
hburst_type  hburst_enum   enum          3          SINGLE
hsize_type   hsize_enum    enum          3          WORD
htrans_type  htrans_enum   enum          1          NONSEQ
HRDATA       integral      hex          00000020          0
hresp_type   hresp_enum    enum          1          OKAY
HREADYOUT    integral      hex           1          0
-------------------------------------------------------------------
UVM_INFO ../../../AHB/mas_agent/ahb_master_monitor.sv(128) @ 410: uvm_test_top.env_h.ahb_uvc_h[0].mas_agent_h[0].mas_mon_h [uvm_test_top.env_h.ahb_uvc_h[0].mas_agent_h[0].mas_mon_h] MASTER MONITOR
------------------------------------------------------------------
NAME           TYPE        SUB-TYPE     SIZE          VALUE
------------------------------------------------------------------
HWRITE        integral      binary        1          0
HADDR         integral      hex          32         00000008
HWDATA        integral      hex          32         '{'h0} 
hburst_type   hburst_enum   enum          3          SINGLE
hsize_type    hsize_enum    enum          3          WORD
htrans_type   htrans_enum   enum          3          '{NONSEQ} 
HRDATA        integral      hex          32         f802f000
hresp_type    htrans_enum   enum          2          OKAY
hready        hready        bit           1          0
-------------------------------------------------------------------
UVM_INFO ../../../AHB/slv_agent/ahb_slave_monitor.sv(90) @ 430: uvm_test_top.env_h.ahb_uvc_h[0].slv_agent_h[0].slv_mon_h [uvm_test_top.env_h.ahb_uvc_h[0].slv_agent_h[0].slv_mon_h] SLAVE MONITOR DATA PHASE
------------------------------------------------------------------
NAME           TYPE        SUB-TYPE     SIZE          VALUE
------------------------------------------------------------------
HWRITE       integral      hex           1          0
HADDR        integral      hex          32         0000000c
HWDATA       integral      hex          32         00000000
hburst_type  hburst_enum   enum          3          SINGLE
hsize_type   hsize_enum    enum          3          WORD
htrans_type  htrans_enum   enum          1          NONSEQ
HRDATA       integral      hex          00000020          f842f000
hresp_type   hresp_enum    enum          1          OKAY
HREADYOUT    integral      hex           1          0
-------------------------------------------------------------------
UVM_INFO ../../../AHB/slv_agent/ahb_slave_monitor.sv(120) @ 430: uvm_test_top.env_h.ahb_uvc_h[0].slv_agent_h[0].slv_mon_h [uvm_test_top.env_h.ahb_uvc_h[0].slv_agent_h[0].slv_mon_h] SLAVE MONITOR ADDRESS PHASE
------------------------------------------------------------------
NAME           TYPE        SUB-TYPE     SIZE          VALUE
------------------------------------------------------------------
HWRITE       integral      hex           1          0
HADDR        integral      hex          32         00000010
HWDATA       integral      hex          32         00000000
hburst_type  hburst_enum   enum          3          SINGLE
hsize_type   hsize_enum    enum          3          WORD
htrans_type  htrans_enum   enum          1          NONSEQ
HRDATA       integral      hex          00000020          0
hresp_type   hresp_enum    enum          1          OKAY
HREADYOUT    integral      hex           1          0
-------------------------------------------------------------------
UVM_INFO ../../../AHB/mas_agent/ahb_master_monitor.sv(128) @ 430: uvm_test_top.env_h.ahb_uvc_h[0].mas_agent_h[0].mas_mon_h [uvm_test_top.env_h.ahb_uvc_h[0].mas_agent_h[0].mas_mon_h] MASTER MONITOR
------------------------------------------------------------------
NAME           TYPE        SUB-TYPE     SIZE          VALUE
------------------------------------------------------------------
HWRITE        integral      binary        1          0
HADDR         integral      hex          32         0000000c
HWDATA        integral      hex          32         '{'h0} 
hburst_type   hburst_enum   enum          3          SINGLE
hsize_type    hsize_enum    enum          3          WORD
htrans_type   htrans_enum   enum          3          '{NONSEQ} 
HRDATA        integral      hex          32         f842f000
hresp_type    htrans_enum   enum          2          OKAY
hready        hready        bit           1          0
-------------------------------------------------------------------
UVM_INFO ../../../AHB/slv_agent/ahb_slave_monitor.sv(90) @ 450: uvm_test_top.env_h.ahb_uvc_h[0].slv_agent_h[0].slv_mon_h [uvm_test_top.env_h.ahb_uvc_h[0].slv_agent_h[0].slv_mon_h] SLAVE MONITOR DATA PHASE
------------------------------------------------------------------
NAME           TYPE        SUB-TYPE     SIZE          VALUE
------------------------------------------------------------------
HWRITE       integral      hex           1          0
HADDR        integral      hex          32         00000010
HWDATA       integral      hex          32         00000000
hburst_type  hburst_enum   enum          3          SINGLE
hsize_type   hsize_enum    enum          3          WORD
htrans_type  htrans_enum   enum          1          NONSEQ
HRDATA       integral      hex          00000020          e896a614
hresp_type   hresp_enum    enum          1          OKAY
HREADYOUT    integral      hex           1          0
-------------------------------------------------------------------
UVM_INFO ../../../AHB/slv_agent/ahb_slave_monitor.sv(120) @ 450: uvm_test_top.env_h.ahb_uvc_h[0].slv_agent_h[0].slv_mon_h [uvm_test_top.env_h.ahb_uvc_h[0].slv_agent_h[0].slv_mon_h] SLAVE MONITOR ADDRESS PHASE
------------------------------------------------------------------
NAME           TYPE        SUB-TYPE     SIZE          VALUE
------------------------------------------------------------------
HWRITE       integral      hex           1          0
HADDR        integral      hex          32         00000014
HWDATA       integral      hex          32         00000000
hburst_type  hburst_enum   enum          3          SINGLE
hsize_type   hsize_enum    enum          3          WORD
htrans_type  htrans_enum   enum          1          NONSEQ
HRDATA       integral      hex          00000020          0
hresp_type   hresp_enum    enum          1          OKAY
HREADYOUT    integral      hex           1          0
-------------------------------------------------------------------
UVM_INFO ../../../AHB/mas_agent/ahb_master_monitor.sv(128) @ 450: uvm_test_top.env_h.ahb_uvc_h[0].mas_agent_h[0].mas_mon_h [uvm_test_top.env_h.ahb_uvc_h[0].mas_agent_h[0].mas_mon_h] MASTER MONITOR
------------------------------------------------------------------
NAME           TYPE        SUB-TYPE     SIZE          VALUE
------------------------------------------------------------------
HWRITE        integral      binary        1          0
HADDR         integral      hex          32         00000010
HWDATA        integral      hex          32         '{'h0} 
hburst_type   hburst_enum   enum          3          SINGLE
hsize_type    hsize_enum    enum          3          WORD
htrans_type   htrans_enum   enum          3          '{NONSEQ} 
HRDATA        integral      hex          32         e896a614
hresp_type    htrans_enum   enum          2          OKAY
hready        hready        bit           1          0
-------------------------------------------------------------------
UVM_INFO ../../../AHB/slv_agent/ahb_slave_monitor.sv(90) @ 470: uvm_test_top.env_h.ahb_uvc_h[0].slv_agent_h[0].slv_mon_h [uvm_test_top.env_h.ahb_uvc_h[0].slv_agent_h[0].slv_mon_h] SLAVE MONITOR DATA PHASE
------------------------------------------------------------------
NAME           TYPE        SUB-TYPE     SIZE          VALUE
------------------------------------------------------------------
HWRITE       integral      hex           1          0
HADDR        integral      hex          32         00000014
HWDATA       integral      hex          32         00000000
hburst_type  hburst_enum   enum          3          SINGLE
hsize_type   hsize_enum    enum          3          WORD
htrans_type  htrans_enum   enum          1          NONSEQ
HRDATA       integral      hex          00000020          44b20c00
hresp_type   hresp_enum    enum          1          OKAY
HREADYOUT    integral      hex           1          0
-------------------------------------------------------------------
UVM_INFO ../../../AHB/slv_agent/ahb_slave_monitor.sv(120) @ 470: uvm_test_top.env_h.ahb_uvc_h[0].slv_agent_h[0].slv_mon_h [uvm_test_top.env_h.ahb_uvc_h[0].slv_agent_h[0].slv_mon_h] SLAVE MONITOR ADDRESS PHASE
------------------------------------------------------------------
NAME           TYPE        SUB-TYPE     SIZE          VALUE
------------------------------------------------------------------
HWRITE       integral      hex           1          0
HADDR        integral      hex          32         00000018
HWDATA       integral      hex          32         00000000
hburst_type  hburst_enum   enum          3          SINGLE
hsize_type   hsize_enum    enum          3          WORD
htrans_type  htrans_enum   enum          1          NONSEQ
HRDATA       integral      hex          00000020          0
hresp_type   hresp_enum    enum          1          OKAY
HREADYOUT    integral      hex           1          0
-------------------------------------------------------------------
UVM_INFO ../../../AHB/mas_agent/ahb_master_monitor.sv(128) @ 470: uvm_test_top.env_h.ahb_uvc_h[0].mas_agent_h[0].mas_mon_h [uvm_test_top.env_h.ahb_uvc_h[0].mas_agent_h[0].mas_mon_h] MASTER MONITOR
------------------------------------------------------------------
NAME           TYPE        SUB-TYPE     SIZE          VALUE
------------------------------------------------------------------
HWRITE        integral      binary        1          0
HADDR         integral      hex          32         00000014
HWDATA        integral      hex          32         '{'h0} 
hburst_type   hburst_enum   enum          3          SINGLE
hsize_type    hsize_enum    enum          3          WORD
htrans_type   htrans_enum   enum          3          '{NONSEQ} 
HRDATA        integral      hex          32         44b20c00
hresp_type    htrans_enum   enum          2          OKAY
hready        hready        bit           1          0
-------------------------------------------------------------------
UVM_INFO ../../../AHB/slv_agent/ahb_slave_monitor.sv(90) @ 490: uvm_test_top.env_h.ahb_uvc_h[0].slv_agent_h[0].slv_mon_h [uvm_test_top.env_h.ahb_uvc_h[0].slv_agent_h[0].slv_mon_h] SLAVE MONITOR DATA PHASE
------------------------------------------------------------------
NAME           TYPE        SUB-TYPE     SIZE          VALUE
------------------------------------------------------------------
HWRITE       integral      hex           1          0
HADDR        integral      hex          32         00000018
HWDATA       integral      hex          32         00000000
hburst_type  hburst_enum   enum          3          SINGLE
hsize_type   hsize_enum    enum          3          WORD
htrans_type  htrans_enum   enum          1          NONSEQ
HRDATA       integral      hex          00000020          45da44b3
hresp_type   hresp_enum    enum          1          OKAY
HREADYOUT    integral      hex           1          0
-------------------------------------------------------------------
UVM_INFO ../../../AHB/slv_agent/ahb_slave_monitor.sv(120) @ 490: uvm_test_top.env_h.ahb_uvc_h[0].slv_agent_h[0].slv_mon_h [uvm_test_top.env_h.ahb_uvc_h[0].slv_agent_h[0].slv_mon_h] SLAVE MONITOR ADDRESS PHASE
------------------------------------------------------------------
NAME           TYPE        SUB-TYPE     SIZE          VALUE
------------------------------------------------------------------
HWRITE       integral      hex           1          0
HADDR        integral      hex          32         0000001c
HWDATA       integral      hex          32         00000000
hburst_type  hburst_enum   enum          3          SINGLE
hsize_type   hsize_enum    enum          3          WORD
htrans_type  htrans_enum   enum          1          NONSEQ
HRDATA       integral      hex          00000020          0
hresp_type   hresp_enum    enum          1          OKAY
HREADYOUT    integral      hex           1          0
-------------------------------------------------------------------
UVM_INFO ../../../AHB/mas_agent/ahb_master_monitor.sv(128) @ 490: uvm_test_top.env_h.ahb_uvc_h[0].mas_agent_h[0].mas_mon_h [uvm_test_top.env_h.ahb_uvc_h[0].mas_agent_h[0].mas_mon_h] MASTER MONITOR
------------------------------------------------------------------
NAME           TYPE        SUB-TYPE     SIZE          VALUE
------------------------------------------------------------------
HWRITE        integral      binary        1          0
HADDR         integral      hex          32         00000018
HWDATA        integral      hex          32         '{'h0} 
hburst_type   hburst_enum   enum          3          SINGLE
hsize_type    hsize_enum    enum          3          WORD
htrans_type   htrans_enum   enum          3          '{NONSEQ} 
HRDATA        integral      hex          32         45da44b3
hresp_type    htrans_enum   enum          2          OKAY
hready        hready        bit           1          0
-------------------------------------------------------------------
UVM_INFO ../../../AHB/slv_agent/ahb_slave_monitor.sv(90) @ 510: uvm_test_top.env_h.ahb_uvc_h[0].slv_agent_h[0].slv_mon_h [uvm_test_top.env_h.ahb_uvc_h[0].slv_agent_h[0].slv_mon_h] SLAVE MONITOR DATA PHASE
------------------------------------------------------------------
NAME           TYPE        SUB-TYPE     SIZE          VALUE
------------------------------------------------------------------
HWRITE       integral      hex           1          0
HADDR        integral      hex          32         0000001c
HWDATA       integral      hex          32         00000000
hburst_type  hburst_enum   enum          3          SINGLE
hsize_type   hsize_enum    enum          3          WORD
htrans_type  htrans_enum   enum          1          NONSEQ
HRDATA       integral      hex          00000020          f000d101
hresp_type   hresp_enum    enum          1          OKAY
HREADYOUT    integral      hex           1          0
-------------------------------------------------------------------
UVM_INFO ../../../AHB/mas_agent/ahb_master_monitor.sv(128) @ 510: uvm_test_top.env_h.ahb_uvc_h[0].mas_agent_h[0].mas_mon_h [uvm_test_top.env_h.ahb_uvc_h[0].mas_agent_h[0].mas_mon_h] MASTER MONITOR
------------------------------------------------------------------
NAME           TYPE        SUB-TYPE     SIZE          VALUE
------------------------------------------------------------------
HWRITE        integral      binary        1          0
HADDR         integral      hex          32         0000001c
HWDATA        integral      hex          32         '{'h0} 
hburst_type   hburst_enum   enum          3          SINGLE
hsize_type    hsize_enum    enum          3          WORD
htrans_type   htrans_enum   enum          3          '{NONSEQ} 
HRDATA        integral      hex          32         f000d101
hresp_type    htrans_enum   enum          2          OKAY
hready        hready        bit           1          0
-------------------------------------------------------------------
UVM_INFO ../../../AHB/slv_agent/ahb_slave_monitor.sv(120) @ 530: uvm_test_top.env_h.ahb_uvc_h[0].slv_agent_h[1].slv_mon_h [uvm_test_top.env_h.ahb_uvc_h[0].slv_agent_h[1].slv_mon_h] SLAVE MONITOR ADDRESS PHASE
------------------------------------------------------------------
NAME           TYPE        SUB-TYPE     SIZE          VALUE
------------------------------------------------------------------
HWRITE       integral      hex           1          0
HADDR        integral      hex          32         00000064
HWDATA       integral      hex          32         00000000
hburst_type  hburst_enum   enum          3          INCR
hsize_type   hsize_enum    enum          3          WORD
htrans_type  htrans_enum   enum          1          NONSEQ
HRDATA       integral      hex          00000020          0
hresp_type   hresp_enum    enum          1          OKAY
HREADYOUT    integral      hex           1          0
-------------------------------------------------------------------
UVM_INFO ../../../AHB/slv_agent/ahb_slave_monitor.sv(90) @ 570: uvm_test_top.env_h.ahb_uvc_h[0].slv_agent_h[1].slv_mon_h [uvm_test_top.env_h.ahb_uvc_h[0].slv_agent_h[1].slv_mon_h] SLAVE MONITOR DATA PHASE
------------------------------------------------------------------
NAME           TYPE        SUB-TYPE     SIZE          VALUE
------------------------------------------------------------------
HWRITE       integral      hex           1          0
HADDR        integral      hex          32         00000064
HWDATA       integral      hex          32         00000000
hburst_type  hburst_enum   enum          3          INCR
hsize_type   hsize_enum    enum          3          WORD
htrans_type  htrans_enum   enum          1          NONSEQ
HRDATA       integral      hex          00000020          c0
hresp_type   hresp_enum    enum          1          OKAY
HREADYOUT    integral      hex           1          0
-------------------------------------------------------------------
UVM_INFO ../../../AHB/slv_agent/ahb_slave_monitor.sv(120) @ 570: uvm_test_top.env_h.ahb_uvc_h[0].slv_agent_h[1].slv_mon_h [uvm_test_top.env_h.ahb_uvc_h[0].slv_agent_h[1].slv_mon_h] SLAVE MONITOR ADDRESS PHASE
------------------------------------------------------------------
NAME           TYPE        SUB-TYPE     SIZE          VALUE
------------------------------------------------------------------
HWRITE       integral      hex           1          0
HADDR        integral      hex          32         00000068
HWDATA       integral      hex          32         00000000
hburst_type  hburst_enum   enum          3          INCR
hsize_type   hsize_enum    enum          3          WORD
htrans_type  htrans_enum   enum          1          SEQ
HRDATA       integral      hex          00000020          0
hresp_type   hresp_enum    enum          1          OKAY
HREADYOUT    integral      hex           1          0
-------------------------------------------------------------------
UVM_INFO ../../../AHB/mas_agent/ahb_master_monitor.sv(128) @ 570: uvm_test_top.env_h.ahb_uvc_h[0].mas_agent_h[0].mas_mon_h [uvm_test_top.env_h.ahb_uvc_h[0].mas_agent_h[0].mas_mon_h] MASTER MONITOR
------------------------------------------------------------------
NAME           TYPE        SUB-TYPE     SIZE          VALUE
------------------------------------------------------------------
HWRITE        integral      binary        1          0
HADDR         integral      hex          32         00000064
HWDATA        integral      hex          32         '{'h0} 
hburst_type   hburst_enum   enum          3          INCR
hsize_type    hsize_enum    enum          3          WORD
htrans_type   htrans_enum   enum          3          '{NONSEQ} 
HRDATA        integral      hex          32         c0
hresp_type    htrans_enum   enum          2          OKAY
hready        hready        bit           1          0
-------------------------------------------------------------------
UVM_INFO ../../../AHB/slv_agent/ahb_slave_monitor.sv(90) @ 590: uvm_test_top.env_h.ahb_uvc_h[0].slv_agent_h[1].slv_mon_h [uvm_test_top.env_h.ahb_uvc_h[0].slv_agent_h[1].slv_mon_h] SLAVE MONITOR DATA PHASE
------------------------------------------------------------------
NAME           TYPE        SUB-TYPE     SIZE          VALUE
------------------------------------------------------------------
HWRITE       integral      hex           1          0
HADDR        integral      hex          32         00000068
HWDATA       integral      hex          32         00000000
hburst_type  hburst_enum   enum          3          INCR
hsize_type   hsize_enum    enum          3          WORD
htrans_type  htrans_enum   enum          1          SEQ
HRDATA       integral      hex          00000020          d0
hresp_type   hresp_enum    enum          1          OKAY
HREADYOUT    integral      hex           1          0
-------------------------------------------------------------------
UVM_INFO ../../../AHB/mas_agent/ahb_master_monitor.sv(128) @ 590: uvm_test_top.env_h.ahb_uvc_h[0].mas_agent_h[0].mas_mon_h [uvm_test_top.env_h.ahb_uvc_h[0].mas_agent_h[0].mas_mon_h] MASTER MONITOR
------------------------------------------------------------------
NAME           TYPE        SUB-TYPE     SIZE          VALUE
------------------------------------------------------------------
HWRITE        integral      binary        1          0
HADDR         integral      hex          32         00000068
HWDATA        integral      hex          32         '{'h0} 
hburst_type   hburst_enum   enum          3          INCR
hsize_type    hsize_enum    enum          3          WORD
htrans_type   htrans_enum   enum          3          '{SEQ} 
HRDATA        integral      hex          32         d0
hresp_type    htrans_enum   enum          2          OKAY
hready        hready        bit           1          0
-------------------------------------------------------------------
UVM_INFO ../../../AHB/slv_agent/ahb_slave_monitor.sv(120) @ 610: uvm_test_top.env_h.ahb_uvc_h[0].slv_agent_h[0].slv_mon_h [uvm_test_top.env_h.ahb_uvc_h[0].slv_agent_h[0].slv_mon_h] SLAVE MONITOR ADDRESS PHASE
------------------------------------------------------------------
NAME           TYPE        SUB-TYPE     SIZE          VALUE
------------------------------------------------------------------
HWRITE       integral      hex           1          0
HADDR        integral      hex          32         00000020
HWDATA       integral      hex          32         00000000
hburst_type  hburst_enum   enum          3          SINGLE
hsize_type   hsize_enum    enum          3          WORD
htrans_type  htrans_enum   enum          1          NONSEQ
HRDATA       integral      hex          00000020          0
hresp_type   hresp_enum    enum          1          OKAY
HREADYOUT    integral      hex           1          0
-------------------------------------------------------------------
UVM_INFO ../../../AHB/slv_agent/ahb_slave_monitor.sv(90) @ 650: uvm_test_top.env_h.ahb_uvc_h[0].slv_agent_h[0].slv_mon_h [uvm_test_top.env_h.ahb_uvc_h[0].slv_agent_h[0].slv_mon_h] SLAVE MONITOR DATA PHASE
------------------------------------------------------------------
NAME           TYPE        SUB-TYPE     SIZE          VALUE
------------------------------------------------------------------
HWRITE       integral      hex           1          0
HADDR        integral      hex          32         00000020
HWDATA       integral      hex          32         00000000
hburst_type  hburst_enum   enum          3          SINGLE
hsize_type   hsize_enum    enum          3          WORD
htrans_type  htrans_enum   enum          1          NONSEQ
HRDATA       integral      hex          00000020          e8baf839
hresp_type   hresp_enum    enum          1          OKAY
HREADYOUT    integral      hex           1          0
-------------------------------------------------------------------
UVM_INFO ../../../AHB/slv_agent/ahb_slave_monitor.sv(120) @ 650: uvm_test_top.env_h.ahb_uvc_h[0].slv_agent_h[0].slv_mon_h [uvm_test_top.env_h.ahb_uvc_h[0].slv_agent_h[0].slv_mon_h] SLAVE MONITOR ADDRESS PHASE
------------------------------------------------------------------
NAME           TYPE        SUB-TYPE     SIZE          VALUE
------------------------------------------------------------------
HWRITE       integral      hex           1          0
HADDR        integral      hex          32         00000024
HWDATA       integral      hex          32         00000000
hburst_type  hburst_enum   enum          3          SINGLE
hsize_type   hsize_enum    enum          3          WORD
htrans_type  htrans_enum   enum          1          NONSEQ
HRDATA       integral      hex          00000020          0
hresp_type   hresp_enum    enum          1          OKAY
HREADYOUT    integral      hex           1          0
-------------------------------------------------------------------
UVM_INFO ../../../AHB/mas_agent/ahb_master_monitor.sv(128) @ 650: uvm_test_top.env_h.ahb_uvc_h[0].mas_agent_h[0].mas_mon_h [uvm_test_top.env_h.ahb_uvc_h[0].mas_agent_h[0].mas_mon_h] MASTER MONITOR
------------------------------------------------------------------
NAME           TYPE        SUB-TYPE     SIZE          VALUE
------------------------------------------------------------------
HWRITE        integral      binary        1          0
HADDR         integral      hex          32         00000020
HWDATA        integral      hex          32         '{'h0} 
hburst_type   hburst_enum   enum          3          SINGLE
hsize_type    hsize_enum    enum          3          WORD
htrans_type   htrans_enum   enum          3          '{NONSEQ} 
HRDATA        integral      hex          32         e8baf839
hresp_type    htrans_enum   enum          2          OKAY
hready        hready        bit           1          0
-------------------------------------------------------------------
UVM_INFO ../../../AHB/slv_agent/ahb_slave_monitor.sv(90) @ 670: uvm_test_top.env_h.ahb_uvc_h[0].slv_agent_h[0].slv_mon_h [uvm_test_top.env_h.ahb_uvc_h[0].slv_agent_h[0].slv_mon_h] SLAVE MONITOR DATA PHASE
------------------------------------------------------------------
NAME           TYPE        SUB-TYPE     SIZE          VALUE
------------------------------------------------------------------
HWRITE       integral      hex           1          0
HADDR        integral      hex          32         00000024
HWDATA       integral      hex          32         00000000
hburst_type  hburst_enum   enum          3          SINGLE
hsize_type   hsize_enum    enum          3          WORD
htrans_type  htrans_enum   enum          1          NONSEQ
HRDATA       integral      hex          00000020          a60f000f
hresp_type   hresp_enum    enum          1          OKAY
HREADYOUT    integral      hex           1          0
-------------------------------------------------------------------
UVM_INFO ../../../AHB/slv_agent/ahb_slave_monitor.sv(120) @ 670: uvm_test_top.env_h.ahb_uvc_h[0].slv_agent_h[0].slv_mon_h [uvm_test_top.env_h.ahb_uvc_h[0].slv_agent_h[0].slv_mon_h] SLAVE MONITOR ADDRESS PHASE
------------------------------------------------------------------
NAME           TYPE        SUB-TYPE     SIZE          VALUE
------------------------------------------------------------------
HWRITE       integral      hex           1          0
HADDR        integral      hex          32         00000020
HWDATA       integral      hex          32         00000000
hburst_type  hburst_enum   enum          3          SINGLE
hsize_type   hsize_enum    enum          3          WORD
htrans_type  htrans_enum   enum          1          NONSEQ
HRDATA       integral      hex          00000020          0
hresp_type   hresp_enum    enum          1          OKAY
HREADYOUT    integral      hex           1          0
-------------------------------------------------------------------
UVM_INFO ../../../AHB/mas_agent/ahb_master_monitor.sv(128) @ 670: uvm_test_top.env_h.ahb_uvc_h[0].mas_agent_h[0].mas_mon_h [uvm_test_top.env_h.ahb_uvc_h[0].mas_agent_h[0].mas_mon_h] MASTER MONITOR
------------------------------------------------------------------
NAME           TYPE        SUB-TYPE     SIZE          VALUE
------------------------------------------------------------------
HWRITE        integral      binary        1          0
HADDR         integral      hex          32         00000024
HWDATA        integral      hex          32         '{'h0} 
hburst_type   hburst_enum   enum          3          SINGLE
hsize_type    hsize_enum    enum          3          WORD
htrans_type   htrans_enum   enum          3          '{NONSEQ} 
HRDATA        integral      hex          32         a60f000f
hresp_type    htrans_enum   enum          2          OKAY
hready        hready        bit           1          0
-------------------------------------------------------------------
UVM_INFO ../../../AHB/slv_agent/ahb_slave_monitor.sv(90) @ 690: uvm_test_top.env_h.ahb_uvc_h[0].slv_agent_h[0].slv_mon_h [uvm_test_top.env_h.ahb_uvc_h[0].slv_agent_h[0].slv_mon_h] SLAVE MONITOR DATA PHASE
------------------------------------------------------------------
NAME           TYPE        SUB-TYPE     SIZE          VALUE
------------------------------------------------------------------
HWRITE       integral      hex           1          0
HADDR        integral      hex          32         00000020
HWDATA       integral      hex          32         00000000
hburst_type  hburst_enum   enum          3          SINGLE
hsize_type   hsize_enum    enum          3          WORD
htrans_type  htrans_enum   enum          1          NONSEQ
HRDATA       integral      hex          00000020          e8baf839
hresp_type   hresp_enum    enum          1          OKAY
HREADYOUT    integral      hex           1          0
-------------------------------------------------------------------
UVM_INFO ../../../AHB/slv_agent/ahb_slave_monitor.sv(120) @ 690: uvm_test_top.env_h.ahb_uvc_h[0].slv_agent_h[0].slv_mon_h [uvm_test_top.env_h.ahb_uvc_h[0].slv_agent_h[0].slv_mon_h] SLAVE MONITOR ADDRESS PHASE
------------------------------------------------------------------
NAME           TYPE        SUB-TYPE     SIZE          VALUE
------------------------------------------------------------------
HWRITE       integral      hex           1          0
HADDR        integral      hex          32         00000024
HWDATA       integral      hex          32         00000000
hburst_type  hburst_enum   enum          3          SINGLE
hsize_type   hsize_enum    enum          3          WORD
htrans_type  htrans_enum   enum          1          NONSEQ
HRDATA       integral      hex          00000020          0
hresp_type   hresp_enum    enum          1          OKAY
HREADYOUT    integral      hex           1          0
-------------------------------------------------------------------
UVM_INFO ../../../AHB/mas_agent/ahb_master_monitor.sv(128) @ 690: uvm_test_top.env_h.ahb_uvc_h[0].mas_agent_h[0].mas_mon_h [uvm_test_top.env_h.ahb_uvc_h[0].mas_agent_h[0].mas_mon_h] MASTER MONITOR
------------------------------------------------------------------
NAME           TYPE        SUB-TYPE     SIZE          VALUE
------------------------------------------------------------------
HWRITE        integral      binary        1          0
HADDR         integral      hex          32         00000020
HWDATA        integral      hex          32         '{'h0} 
hburst_type   hburst_enum   enum          3          SINGLE
hsize_type    hsize_enum    enum          3          WORD
htrans_type   htrans_enum   enum          3          '{NONSEQ} 
HRDATA        integral      hex          32         e8baf839
hresp_type    htrans_enum   enum          2          OKAY
hready        hready        bit           1          0
-------------------------------------------------------------------
UVM_INFO ../../../AHB/slv_agent/ahb_slave_monitor.sv(90) @ 710: uvm_test_top.env_h.ahb_uvc_h[0].slv_agent_h[0].slv_mon_h [uvm_test_top.env_h.ahb_uvc_h[0].slv_agent_h[0].slv_mon_h] SLAVE MONITOR DATA PHASE
------------------------------------------------------------------
NAME           TYPE        SUB-TYPE     SIZE          VALUE
------------------------------------------------------------------
HWRITE       integral      hex           1          0
HADDR        integral      hex          32         00000024
HWDATA       integral      hex          32         00000000
hburst_type  hburst_enum   enum          3          SINGLE
hsize_type   hsize_enum    enum          3          WORD
htrans_type  htrans_enum   enum          1          NONSEQ
HRDATA       integral      hex          00000020          a60f000f
hresp_type   hresp_enum    enum          1          OKAY
HREADYOUT    integral      hex           1          0
-------------------------------------------------------------------
UVM_INFO ../../../AHB/slv_agent/ahb_slave_monitor.sv(120) @ 710: uvm_test_top.env_h.ahb_uvc_h[0].slv_agent_h[0].slv_mon_h [uvm_test_top.env_h.ahb_uvc_h[0].slv_agent_h[0].slv_mon_h] SLAVE MONITOR ADDRESS PHASE
------------------------------------------------------------------
NAME           TYPE        SUB-TYPE     SIZE          VALUE
------------------------------------------------------------------
HWRITE       integral      hex           1          0
HADDR        integral      hex          32         00000028
HWDATA       integral      hex          32         00000000
hburst_type  hburst_enum   enum          3          SINGLE
hsize_type   hsize_enum    enum          3          WORD
htrans_type  htrans_enum   enum          1          NONSEQ
HRDATA       integral      hex          00000020          0
hresp_type   hresp_enum    enum          1          OKAY
HREADYOUT    integral      hex           1          0
-------------------------------------------------------------------
UVM_INFO ../../../AHB/mas_agent/ahb_master_monitor.sv(128) @ 710: uvm_test_top.env_h.ahb_uvc_h[0].mas_agent_h[0].mas_mon_h [uvm_test_top.env_h.ahb_uvc_h[0].mas_agent_h[0].mas_mon_h] MASTER MONITOR
------------------------------------------------------------------
NAME           TYPE        SUB-TYPE     SIZE          VALUE
------------------------------------------------------------------
HWRITE        integral      binary        1          0
HADDR         integral      hex          32         00000024
HWDATA        integral      hex          32         '{'h0} 
hburst_type   hburst_enum   enum          3          SINGLE
hsize_type    hsize_enum    enum          3          WORD
htrans_type   htrans_enum   enum          3          '{NONSEQ} 
HRDATA        integral      hex          32         a60f000f
hresp_type    htrans_enum   enum          2          OKAY
hready        hready        bit           1          0
-------------------------------------------------------------------
UVM_INFO ../../../AHB/slv_agent/ahb_slave_monitor.sv(90) @ 730: uvm_test_top.env_h.ahb_uvc_h[0].slv_agent_h[0].slv_mon_h [uvm_test_top.env_h.ahb_uvc_h[0].slv_agent_h[0].slv_mon_h] SLAVE MONITOR DATA PHASE
------------------------------------------------------------------
NAME           TYPE        SUB-TYPE     SIZE          VALUE
------------------------------------------------------------------
HWRITE       integral      hex           1          0
HADDR        integral      hex          32         00000028
HWDATA       integral      hex          32         00000000
hburst_type  hburst_enum   enum          3          SINGLE
hsize_type   hsize_enum    enum          3          WORD
htrans_type  htrans_enum   enum          1          NONSEQ
HRDATA       integral      hex          00000020          30e896
hresp_type   hresp_enum    enum          1          OKAY
HREADYOUT    integral      hex           1          0
-------------------------------------------------------------------
UVM_INFO ../../../AHB/slv_agent/ahb_slave_monitor.sv(120) @ 730: uvm_test_top.env_h.ahb_uvc_h[0].slv_agent_h[0].slv_mon_h [uvm_test_top.env_h.ahb_uvc_h[0].slv_agent_h[0].slv_mon_h] SLAVE MONITOR ADDRESS PHASE
------------------------------------------------------------------
NAME           TYPE        SUB-TYPE     SIZE          VALUE
------------------------------------------------------------------
HWRITE       integral      hex           1          0
HADDR        integral      hex          32         0000002c
HWDATA       integral      hex          32         00000000
hburst_type  hburst_enum   enum          3          SINGLE
hsize_type   hsize_enum    enum          3          WORD
htrans_type  htrans_enum   enum          1          NONSEQ
HRDATA       integral      hex          00000020          0
hresp_type   hresp_enum    enum          1          OKAY
HREADYOUT    integral      hex           1          0
-------------------------------------------------------------------
UVM_INFO ../../../AHB/mas_agent/ahb_master_monitor.sv(128) @ 730: uvm_test_top.env_h.ahb_uvc_h[0].mas_agent_h[0].mas_mon_h [uvm_test_top.env_h.ahb_uvc_h[0].mas_agent_h[0].mas_mon_h] MASTER MONITOR
------------------------------------------------------------------
NAME           TYPE        SUB-TYPE     SIZE          VALUE
------------------------------------------------------------------
HWRITE        integral      binary        1          0
HADDR         integral      hex          32         00000028
HWDATA        integral      hex          32         '{'h0} 
hburst_type   hburst_enum   enum          3          SINGLE
hsize_type    hsize_enum    enum          3          WORD
htrans_type   htrans_enum   enum          3          '{NONSEQ} 
HRDATA        integral      hex          32         30e896
hresp_type    htrans_enum   enum          2          OKAY
hready        hready        bit           1          0
-------------------------------------------------------------------
UVM_INFO ../../../AHB/slv_agent/ahb_slave_monitor.sv(90) @ 750: uvm_test_top.env_h.ahb_uvc_h[0].slv_agent_h[0].slv_mon_h [uvm_test_top.env_h.ahb_uvc_h[0].slv_agent_h[0].slv_mon_h] SLAVE MONITOR DATA PHASE
------------------------------------------------------------------
NAME           TYPE        SUB-TYPE     SIZE          VALUE
------------------------------------------------------------------
HWRITE       integral      hex           1          0
HADDR        integral      hex          32         0000002c
HWDATA       integral      hex          32         00000000
hburst_type  hburst_enum   enum          3          SINGLE
hsize_type   hsize_enum    enum          3          WORD
htrans_type  htrans_enum   enum          1          NONSEQ
HRDATA       integral      hex          00000020          504eba5
hresp_type   hresp_enum    enum          1          OKAY
HREADYOUT    integral      hex           1          0
-------------------------------------------------------------------
UVM_INFO ../../../AHB/slv_agent/ahb_slave_monitor.sv(120) @ 750: uvm_test_top.env_h.ahb_uvc_h[0].slv_agent_h[1].slv_mon_h [uvm_test_top.env_h.ahb_uvc_h[0].slv_agent_h[1].slv_mon_h] SLAVE MONITOR ADDRESS PHASE
------------------------------------------------------------------
NAME           TYPE        SUB-TYPE     SIZE          VALUE
------------------------------------------------------------------
HWRITE       integral      hex           1          0
HADDR        integral      hex          32         00000124
HWDATA       integral      hex          32         00000000
hburst_type  hburst_enum   enum          3          INCR
hsize_type   hsize_enum    enum          3          WORD
htrans_type  htrans_enum   enum          1          NONSEQ
HRDATA       integral      hex          00000020          0
hresp_type   hresp_enum    enum          1          OKAY
HREADYOUT    integral      hex           1          0
-------------------------------------------------------------------
UVM_INFO ../../../AHB/mas_agent/ahb_master_monitor.sv(128) @ 750: uvm_test_top.env_h.ahb_uvc_h[0].mas_agent_h[0].mas_mon_h [uvm_test_top.env_h.ahb_uvc_h[0].mas_agent_h[0].mas_mon_h] MASTER MONITOR
------------------------------------------------------------------
NAME           TYPE        SUB-TYPE     SIZE          VALUE
------------------------------------------------------------------
HWRITE        integral      binary        1          0
HADDR         integral      hex          32         0000002c
HWDATA        integral      hex          32         '{'h0} 
hburst_type   hburst_enum   enum          3          SINGLE
hsize_type    hsize_enum    enum          3          WORD
htrans_type   htrans_enum   enum          3          '{NONSEQ} 
HRDATA        integral      hex          32         504eba5
hresp_type    htrans_enum   enum          2          OKAY
hready        hready        bit           1          0
-------------------------------------------------------------------
UVM_INFO ../../../AHB/slv_agent/ahb_slave_monitor.sv(90) @ 790: uvm_test_top.env_h.ahb_uvc_h[0].slv_agent_h[1].slv_mon_h [uvm_test_top.env_h.ahb_uvc_h[0].slv_agent_h[1].slv_mon_h] SLAVE MONITOR DATA PHASE
------------------------------------------------------------------
NAME           TYPE        SUB-TYPE     SIZE          VALUE
------------------------------------------------------------------
HWRITE       integral      hex           1          0
HADDR        integral      hex          32         00000124
HWDATA       integral      hex          32         00000000
hburst_type  hburst_enum   enum          3          INCR
hsize_type   hsize_enum    enum          3          WORD
htrans_type  htrans_enum   enum          1          NONSEQ
HRDATA       integral      hex          00000020          134
hresp_type   hresp_enum    enum          1          OKAY
HREADYOUT    integral      hex           1          0
-------------------------------------------------------------------
UVM_INFO ../../../AHB/slv_agent/ahb_slave_monitor.sv(120) @ 790: uvm_test_top.env_h.ahb_uvc_h[0].slv_agent_h[1].slv_mon_h [uvm_test_top.env_h.ahb_uvc_h[0].slv_agent_h[1].slv_mon_h] SLAVE MONITOR ADDRESS PHASE
------------------------------------------------------------------
NAME           TYPE        SUB-TYPE     SIZE          VALUE
------------------------------------------------------------------
HWRITE       integral      hex           1          0
HADDR        integral      hex          32         00000128
HWDATA       integral      hex          32         00000000
hburst_type  hburst_enum   enum          3          INCR
hsize_type   hsize_enum    enum          3          WORD
htrans_type  htrans_enum   enum          1          SEQ
HRDATA       integral      hex          00000020          0
hresp_type   hresp_enum    enum          1          OKAY
HREADYOUT    integral      hex           1          0
-------------------------------------------------------------------
UVM_INFO ../../../AHB/mas_agent/ahb_master_monitor.sv(128) @ 790: uvm_test_top.env_h.ahb_uvc_h[0].mas_agent_h[0].mas_mon_h [uvm_test_top.env_h.ahb_uvc_h[0].mas_agent_h[0].mas_mon_h] MASTER MONITOR
------------------------------------------------------------------
NAME           TYPE        SUB-TYPE     SIZE          VALUE
------------------------------------------------------------------
HWRITE        integral      binary        1          0
HADDR         integral      hex          32         00000124
HWDATA        integral      hex          32         '{'h0} 
hburst_type   hburst_enum   enum          3          INCR
hsize_type    hsize_enum    enum          3          WORD
htrans_type   htrans_enum   enum          3          '{NONSEQ} 
HRDATA        integral      hex          32         134
hresp_type    htrans_enum   enum          2          OKAY
hready        hready        bit           1          0
-------------------------------------------------------------------
UVM_INFO ../../../AHB/slv_agent/ahb_slave_monitor.sv(90) @ 810: uvm_test_top.env_h.ahb_uvc_h[0].slv_agent_h[1].slv_mon_h [uvm_test_top.env_h.ahb_uvc_h[0].slv_agent_h[1].slv_mon_h] SLAVE MONITOR DATA PHASE
------------------------------------------------------------------
NAME           TYPE        SUB-TYPE     SIZE          VALUE
------------------------------------------------------------------
HWRITE       integral      hex           1          0
HADDR        integral      hex          32         00000128
HWDATA       integral      hex          32         00000000
hburst_type  hburst_enum   enum          3          INCR
hsize_type   hsize_enum    enum          3          WORD
htrans_type  htrans_enum   enum          1          SEQ
HRDATA       integral      hex          00000020          20000000
hresp_type   hresp_enum    enum          1          OKAY
HREADYOUT    integral      hex           1          0
-------------------------------------------------------------------
UVM_INFO ../../../AHB/slv_agent/ahb_slave_monitor.sv(120) @ 810: uvm_test_top.env_h.ahb_uvc_h[0].slv_agent_h[1].slv_mon_h [uvm_test_top.env_h.ahb_uvc_h[0].slv_agent_h[1].slv_mon_h] SLAVE MONITOR ADDRESS PHASE
------------------------------------------------------------------
NAME           TYPE        SUB-TYPE     SIZE          VALUE
------------------------------------------------------------------
HWRITE       integral      hex           1          0
HADDR        integral      hex          32         0000012c
HWDATA       integral      hex          32         00000000
hburst_type  hburst_enum   enum          3          INCR
hsize_type   hsize_enum    enum          3          WORD
htrans_type  htrans_enum   enum          1          SEQ
HRDATA       integral      hex          00000020          0
hresp_type   hresp_enum    enum          1          OKAY
HREADYOUT    integral      hex           1          0
-------------------------------------------------------------------
UVM_INFO ../../../AHB/mas_agent/ahb_master_monitor.sv(128) @ 810: uvm_test_top.env_h.ahb_uvc_h[0].mas_agent_h[0].mas_mon_h [uvm_test_top.env_h.ahb_uvc_h[0].mas_agent_h[0].mas_mon_h] MASTER MONITOR
------------------------------------------------------------------
NAME           TYPE        SUB-TYPE     SIZE          VALUE
------------------------------------------------------------------
HWRITE        integral      binary        1          0
HADDR         integral      hex          32         00000128
HWDATA        integral      hex          32         '{'h0} 
hburst_type   hburst_enum   enum          3          INCR
hsize_type    hsize_enum    enum          3          WORD
htrans_type   htrans_enum   enum          3          '{SEQ} 
HRDATA        integral      hex          32         20000000
hresp_type    htrans_enum   enum          2          OKAY
hready        hready        bit           1          0
-------------------------------------------------------------------
UVM_INFO ../../../AHB/slv_agent/ahb_slave_monitor.sv(90) @ 830: uvm_test_top.env_h.ahb_uvc_h[0].slv_agent_h[1].slv_mon_h [uvm_test_top.env_h.ahb_uvc_h[0].slv_agent_h[1].slv_mon_h] SLAVE MONITOR DATA PHASE
------------------------------------------------------------------
NAME           TYPE        SUB-TYPE     SIZE          VALUE
------------------------------------------------------------------
HWRITE       integral      hex           1          0
HADDR        integral      hex          32         0000012c
HWDATA       integral      hex          32         00000000
hburst_type  hburst_enum   enum          3          INCR
hsize_type   hsize_enum    enum          3          WORD
htrans_type  htrans_enum   enum          1          SEQ
HRDATA       integral      hex          00000020          404
hresp_type   hresp_enum    enum          1          OKAY
HREADYOUT    integral      hex           1          0
-------------------------------------------------------------------
UVM_INFO ../../../AHB/slv_agent/ahb_slave_monitor.sv(120) @ 830: uvm_test_top.env_h.ahb_uvc_h[0].slv_agent_h[1].slv_mon_h [uvm_test_top.env_h.ahb_uvc_h[0].slv_agent_h[1].slv_mon_h] SLAVE MONITOR ADDRESS PHASE
------------------------------------------------------------------
NAME           TYPE        SUB-TYPE     SIZE          VALUE
------------------------------------------------------------------
HWRITE       integral      hex           1          0
HADDR        integral      hex          32         00000130
HWDATA       integral      hex          32         00000000
hburst_type  hburst_enum   enum          3          INCR
hsize_type   hsize_enum    enum          3          WORD
htrans_type  htrans_enum   enum          1          SEQ
HRDATA       integral      hex          00000020          0
hresp_type   hresp_enum    enum          1          OKAY
HREADYOUT    integral      hex           1          0
-------------------------------------------------------------------
UVM_INFO ../../../AHB/mas_agent/ahb_master_monitor.sv(128) @ 830: uvm_test_top.env_h.ahb_uvc_h[0].mas_agent_h[0].mas_mon_h [uvm_test_top.env_h.ahb_uvc_h[0].mas_agent_h[0].mas_mon_h] MASTER MONITOR
------------------------------------------------------------------
NAME           TYPE        SUB-TYPE     SIZE          VALUE
------------------------------------------------------------------
HWRITE        integral      binary        1          0
HADDR         integral      hex          32         0000012c
HWDATA        integral      hex          32         '{'h0} 
hburst_type   hburst_enum   enum          3          INCR
hsize_type    hsize_enum    enum          3          WORD
htrans_type   htrans_enum   enum          3          '{SEQ} 
HRDATA        integral      hex          32         404
hresp_type    htrans_enum   enum          2          OKAY
hready        hready        bit           1          0
-------------------------------------------------------------------
UVM_INFO ../../../AHB/slv_agent/ahb_slave_monitor.sv(90) @ 850: uvm_test_top.env_h.ahb_uvc_h[0].slv_agent_h[1].slv_mon_h [uvm_test_top.env_h.ahb_uvc_h[0].slv_agent_h[1].slv_mon_h] SLAVE MONITOR DATA PHASE
------------------------------------------------------------------
NAME           TYPE        SUB-TYPE     SIZE          VALUE
------------------------------------------------------------------
HWRITE       integral      hex           1          0
HADDR        integral      hex          32         00000130
HWDATA       integral      hex          32         00000000
hburst_type  hburst_enum   enum          3          INCR
hsize_type   hsize_enum    enum          3          WORD
htrans_type  htrans_enum   enum          1          SEQ
HRDATA       integral      hex          00000020          70
hresp_type   hresp_enum    enum          1          OKAY
HREADYOUT    integral      hex           1          0
-------------------------------------------------------------------
UVM_INFO ../../../AHB/mas_agent/ahb_master_monitor.sv(128) @ 850: uvm_test_top.env_h.ahb_uvc_h[0].mas_agent_h[0].mas_mon_h [uvm_test_top.env_h.ahb_uvc_h[0].mas_agent_h[0].mas_mon_h] MASTER MONITOR
------------------------------------------------------------------
NAME           TYPE        SUB-TYPE     SIZE          VALUE
------------------------------------------------------------------
HWRITE        integral      binary        1          0
HADDR         integral      hex          32         00000130
HWDATA        integral      hex          32         '{'h0} 
hburst_type   hburst_enum   enum          3          INCR
hsize_type    hsize_enum    enum          3          WORD
htrans_type   htrans_enum   enum          3          '{SEQ} 
HRDATA        integral      hex          32         70
hresp_type    htrans_enum   enum          2          OKAY
hready        hready        bit           1          0
-------------------------------------------------------------------
UVM_INFO ../../../AHB/slv_agent/ahb_slave_monitor.sv(120) @ 870: uvm_test_top.env_h.ahb_uvc_h[0].slv_agent_h[0].slv_mon_h [uvm_test_top.env_h.ahb_uvc_h[0].slv_agent_h[0].slv_mon_h] SLAVE MONITOR ADDRESS PHASE
------------------------------------------------------------------
NAME           TYPE        SUB-TYPE     SIZE          VALUE
------------------------------------------------------------------
HWRITE       integral      hex           1          0
HADDR        integral      hex          32         00000030
HWDATA       integral      hex          32         00000000
hburst_type  hburst_enum   enum          3          SINGLE
hsize_type   hsize_enum    enum          3          WORD
htrans_type  htrans_enum   enum          1          NONSEQ
HRDATA       integral      hex          00000020          0
hresp_type   hresp_enum    enum          1          OKAY
HREADYOUT    integral      hex           1          0
-------------------------------------------------------------------
UVM_INFO ../../../AHB/slv_agent/ahb_slave_monitor.sv(90) @ 910: uvm_test_top.env_h.ahb_uvc_h[0].slv_agent_h[0].slv_mon_h [uvm_test_top.env_h.ahb_uvc_h[0].slv_agent_h[0].slv_mon_h] SLAVE MONITOR DATA PHASE
------------------------------------------------------------------
NAME           TYPE        SUB-TYPE     SIZE          VALUE
------------------------------------------------------------------
HWRITE       integral      hex           1          0
HADDR        integral      hex          32         00000030
HWDATA       integral      hex          32         00000000
hburst_type  hburst_enum   enum          3          SINGLE
hsize_type   hsize_enum    enum          3          WORD
htrans_type  htrans_enum   enum          1          NONSEQ
HRDATA       integral      hex          00000020          706eb04
hresp_type   hresp_enum    enum          1          OKAY
HREADYOUT    integral      hex           1          0
-------------------------------------------------------------------
UVM_INFO ../../../AHB/slv_agent/ahb_slave_monitor.sv(120) @ 910: uvm_test_top.env_h.ahb_uvc_h[0].slv_agent_h[0].slv_mon_h [uvm_test_top.env_h.ahb_uvc_h[0].slv_agent_h[0].slv_mon_h] SLAVE MONITOR ADDRESS PHASE
------------------------------------------------------------------
NAME           TYPE        SUB-TYPE     SIZE          VALUE
------------------------------------------------------------------
HWRITE       integral      hex           1          0
HADDR        integral      hex          32         00000034
HWDATA       integral      hex          32         00000000
hburst_type  hburst_enum   enum          3          SINGLE
hsize_type   hsize_enum    enum          3          WORD
htrans_type  htrans_enum   enum          1          NONSEQ
HRDATA       integral      hex          00000020          0
hresp_type   hresp_enum    enum          1          OKAY
HREADYOUT    integral      hex           1          0
-------------------------------------------------------------------
UVM_INFO ../../../AHB/slv_agent/ahb_slave_monitor.sv(120) @ 910: uvm_test_top.env_h.ahb_uvc_h[0].slv_agent_h[1].slv_mon_h [uvm_test_top.env_h.ahb_uvc_h[0].slv_agent_h[1].slv_mon_h] SLAVE MONITOR ADDRESS PHASE
------------------------------------------------------------------
NAME           TYPE        SUB-TYPE     SIZE          VALUE
------------------------------------------------------------------
HWRITE       integral      hex           1          0
HADDR        integral      hex          32         00000064
HWDATA       integral      hex          32         00000000
hburst_type  hburst_enum   enum          3          INCR
hsize_type   hsize_enum    enum          3          WORD
htrans_type  htrans_enum   enum          1          NONSEQ
HRDATA       integral      hex          00000020          0
hresp_type   hresp_enum    enum          1          OKAY
HREADYOUT    integral      hex           1          0
-------------------------------------------------------------------
UVM_INFO ../../../AHB/mas_agent/ahb_master_monitor.sv(128) @ 910: uvm_test_top.env_h.ahb_uvc_h[0].mas_agent_h[0].mas_mon_h [uvm_test_top.env_h.ahb_uvc_h[0].mas_agent_h[0].mas_mon_h] MASTER MONITOR
------------------------------------------------------------------
NAME           TYPE        SUB-TYPE     SIZE          VALUE
------------------------------------------------------------------
HWRITE        integral      binary        1          0
HADDR         integral      hex          32         00000030
HWDATA        integral      hex          32         '{'h0} 
hburst_type   hburst_enum   enum          3          SINGLE
hsize_type    hsize_enum    enum          3          WORD
htrans_type   htrans_enum   enum          3          '{NONSEQ} 
HRDATA        integral      hex          32         706eb04
hresp_type    htrans_enum   enum          2          OKAY
hready        hready        bit           1          0
-------------------------------------------------------------------
UVM_INFO ../../../AHB/slv_agent/ahb_slave_monitor.sv(90) @ 930: uvm_test_top.env_h.ahb_uvc_h[0].slv_agent_h[0].slv_mon_h [uvm_test_top.env_h.ahb_uvc_h[0].slv_agent_h[0].slv_mon_h] SLAVE MONITOR DATA PHASE
------------------------------------------------------------------
NAME           TYPE        SUB-TYPE     SIZE          VALUE
------------------------------------------------------------------
HWRITE       integral      hex           1          0
HADDR        integral      hex          32         00000034
HWDATA       integral      hex          32         00000000
hburst_type  hburst_enum   enum          3          SINGLE
hsize_type   hsize_enum    enum          3          WORD
htrans_type  htrans_enum   enum          1          NONSEQ
HRDATA       integral      hex          00000020          407ebaa
hresp_type   hresp_enum    enum          1          OKAY
HREADYOUT    integral      hex           1          0
-------------------------------------------------------------------
UVM_INFO ../../../AHB/mas_agent/ahb_master_monitor.sv(128) @ 930: uvm_test_top.env_h.ahb_uvc_h[0].mas_agent_h[0].mas_mon_h [uvm_test_top.env_h.ahb_uvc_h[0].mas_agent_h[0].mas_mon_h] MASTER MONITOR
------------------------------------------------------------------
NAME           TYPE        SUB-TYPE     SIZE          VALUE
------------------------------------------------------------------
HWRITE        integral      binary        1          0
HADDR         integral      hex          32         00000034
HWDATA        integral      hex          32         '{'h0} 
hburst_type   hburst_enum   enum          3          SINGLE
hsize_type    hsize_enum    enum          3          WORD
htrans_type   htrans_enum   enum          3          '{NONSEQ} 
HRDATA        integral      hex          32         407ebaa
hresp_type    htrans_enum   enum          2          OKAY
hready        hready        bit           1          0
-------------------------------------------------------------------
UVM_INFO ../../../AHB/slv_agent/ahb_slave_monitor.sv(90) @ 970: uvm_test_top.env_h.ahb_uvc_h[0].slv_agent_h[1].slv_mon_h [uvm_test_top.env_h.ahb_uvc_h[0].slv_agent_h[1].slv_mon_h] SLAVE MONITOR DATA PHASE
------------------------------------------------------------------
NAME           TYPE        SUB-TYPE     SIZE          VALUE
------------------------------------------------------------------
HWRITE       integral      hex           1          0
HADDR        integral      hex          32         00000064
HWDATA       integral      hex          32         00000000
hburst_type  hburst_enum   enum          3          INCR
hsize_type   hsize_enum    enum          3          WORD
htrans_type  htrans_enum   enum          1          NONSEQ
HRDATA       integral      hex          00000020          c0
hresp_type   hresp_enum    enum          1          OKAY
HREADYOUT    integral      hex           1          0
-------------------------------------------------------------------
UVM_INFO ../../../AHB/slv_agent/ahb_slave_monitor.sv(120) @ 970: uvm_test_top.env_h.ahb_uvc_h[0].slv_agent_h[1].slv_mon_h [uvm_test_top.env_h.ahb_uvc_h[0].slv_agent_h[1].slv_mon_h] SLAVE MONITOR ADDRESS PHASE
------------------------------------------------------------------
NAME           TYPE        SUB-TYPE     SIZE          VALUE
------------------------------------------------------------------
HWRITE       integral      hex           1          0
HADDR        integral      hex          32         00000068
HWDATA       integral      hex          32         00000000
hburst_type  hburst_enum   enum          3          INCR
hsize_type   hsize_enum    enum          3          WORD
htrans_type  htrans_enum   enum          1          SEQ
HRDATA       integral      hex          00000020          0
hresp_type   hresp_enum    enum          1          OKAY
HREADYOUT    integral      hex           1          0
-------------------------------------------------------------------
UVM_INFO ../../../AHB/mas_agent/ahb_master_monitor.sv(128) @ 970: uvm_test_top.env_h.ahb_uvc_h[0].mas_agent_h[0].mas_mon_h [uvm_test_top.env_h.ahb_uvc_h[0].mas_agent_h[0].mas_mon_h] MASTER MONITOR
------------------------------------------------------------------
NAME           TYPE        SUB-TYPE     SIZE          VALUE
------------------------------------------------------------------
HWRITE        integral      binary        1          0
HADDR         integral      hex          32         00000064
HWDATA        integral      hex          32         '{'h0} 
hburst_type   hburst_enum   enum          3          INCR
hsize_type    hsize_enum    enum          3          WORD
htrans_type   htrans_enum   enum          3          '{NONSEQ} 
HRDATA        integral      hex          32         c0
hresp_type    htrans_enum   enum          2          OKAY
hready        hready        bit           1          0
-------------------------------------------------------------------
UVM_INFO ../../../AHB/slv_agent/ahb_slave_monitor.sv(90) @ 990: uvm_test_top.env_h.ahb_uvc_h[0].slv_agent_h[1].slv_mon_h [uvm_test_top.env_h.ahb_uvc_h[0].slv_agent_h[1].slv_mon_h] SLAVE MONITOR DATA PHASE
------------------------------------------------------------------
NAME           TYPE        SUB-TYPE     SIZE          VALUE
------------------------------------------------------------------
HWRITE       integral      hex           1          0
HADDR        integral      hex          32         00000068
HWDATA       integral      hex          32         00000000
hburst_type  hburst_enum   enum          3          INCR
hsize_type   hsize_enum    enum          3          WORD
htrans_type  htrans_enum   enum          1          SEQ
HRDATA       integral      hex          00000020          d0
hresp_type   hresp_enum    enum          1          OKAY
HREADYOUT    integral      hex           1          0
-------------------------------------------------------------------
UVM_INFO ../../../AHB/mas_agent/ahb_master_monitor.sv(128) @ 990: uvm_test_top.env_h.ahb_uvc_h[0].mas_agent_h[0].mas_mon_h [uvm_test_top.env_h.ahb_uvc_h[0].mas_agent_h[0].mas_mon_h] MASTER MONITOR
------------------------------------------------------------------
NAME           TYPE        SUB-TYPE     SIZE          VALUE
------------------------------------------------------------------
HWRITE        integral      binary        1          0
HADDR         integral      hex          32         00000068
HWDATA        integral      hex          32         '{'h0} 
hburst_type   hburst_enum   enum          3          INCR
hsize_type    hsize_enum    enum          3          WORD
htrans_type   htrans_enum   enum          3          '{SEQ} 
HRDATA        integral      hex          32         d0
hresp_type    htrans_enum   enum          2          OKAY
hready        hready        bit           1          0
-------------------------------------------------------------------
UVM_INFO ../../../AHB/slv_agent/ahb_slave_monitor.sv(120) @ 1010: uvm_test_top.env_h.ahb_uvc_h[0].slv_agent_h[0].slv_mon_h [uvm_test_top.env_h.ahb_uvc_h[0].slv_agent_h[0].slv_mon_h] SLAVE MONITOR ADDRESS PHASE
------------------------------------------------------------------
NAME           TYPE        SUB-TYPE     SIZE          VALUE
------------------------------------------------------------------
HWRITE       integral      hex           1          0
HADDR        integral      hex          32         00000038
HWDATA       integral      hex          32         00000000
hburst_type  hburst_enum   enum          3          SINGLE
hsize_type   hsize_enum    enum          3          WORD
htrans_type  htrans_enum   enum          1          NONSEQ
HRDATA       integral      hex          00000020          0
hresp_type   hresp_enum    enum          1          OKAY
HREADYOUT    integral      hex           1          0
-------------------------------------------------------------------
UVM_INFO ../../../AHB/slv_agent/ahb_slave_monitor.sv(90) @ 1050: uvm_test_top.env_h.ahb_uvc_h[0].slv_agent_h[0].slv_mon_h [uvm_test_top.env_h.ahb_uvc_h[0].slv_agent_h[0].slv_mon_h] SLAVE MONITOR DATA PHASE
------------------------------------------------------------------
NAME           TYPE        SUB-TYPE     SIZE          VALUE
------------------------------------------------------------------
HWRITE       integral      hex           1          0
HADDR        integral      hex          32         00000038
HWDATA       integral      hex          32         00000000
hburst_type  hburst_enum   enum          3          SINGLE
hsize_type   hsize_enum    enum          3          WORD
htrans_type  htrans_enum   enum          1          NONSEQ
HRDATA       integral      hex          00000020          701f1a7
hresp_type   hresp_enum    enum          1          OKAY
HREADYOUT    integral      hex           1          0
-------------------------------------------------------------------
